xrun: 23.09-s001: (c) Copyright 1995-2023 Cadence Design Systems, Inc.
TOOL:	xrun	23.09-s001: Started on Jul 10, 2025 at 08:47:53 EDT
xrun
	-Q
	-unbuffered
	-timescale 1ns/1ns
	-sysv
	-access +rw
	-coverage all
	-uvmnocdnsextra
	-uvmhome /xcelium23.09/tools//methodology/UVM/CDNS-1.2/sv
	/xcelium23.09/tools//methodology/UVM/CDNS-1.2/sv/src/uvm_macros.svh
	-input run.do
	design.sv
	testbench.sv
	Top level design units:
		uvm_pkg
		apb_pkg
		$unit_0x636eb983
		tb
        mem[vif.paddr]<=vif.pwdata;
                    |
xmelab: *W,BIGWIX (./design.sv,26|20): Memory index truncation.
       vif.prdata<=mem[vif.paddr];
                               |
xmelab: *W,BIGWIX (./design.sv,28|31): Memory index truncation.
xmelab: *W,COVDCL: By default expression coverage is scored only for Verilog logical operators (|| and &&) and VHDL logical operators (OR, AND, NOR, and NAND), and is scored only in condition expressions. To score coverage for other operators and for expressions in other statements, use the "set_expr_coverable_operators" and "set_expr_coverable_statements" coverage configuration file commands with suitable options at elaboration.
  reg [31:0] mem [0:127]='{default:0};
               |
xmelab: *W,COVMDD (./design.sv,13|15): Toggle coverage for bit, logic, reg, wire, enum and struct multi-dimensional static arrays and vectors is not supported by default. To enable toggle coverage for enum multi-dimensional static arrays specify 'set_toggle_scoring -sv_enum enable_mda' and for other multi-dimensional static arrays, specify 'set_toggle_scoring -sv_mda [<max_bit_base2_exponent>] [-sv_mda_of_struct]' ccf command in the coverage configuration file.
xmelab: *W,CGPIDF: Covergroup "per_instance" option , by default, is set as 0.
xmelab: *N,COVCGN: Coverage configuration file command "set_covergroup -new_instance_reporting" can be specified to improve the scoping and naming of covergroup instances. It may be noted that subsequent merging of a coverage database saved with this command and a coverage database saved without this command is not allowed.
Loading snapshot worklib.tb:sv .................... Done
SVSEED default: 1
xcelium> source /xcelium23.09/tools/xcelium/files/xmsimrc
xcelium> source /xcelium23.09/tools//methodology/UVM/CDNS-1.2/sv/files/tcl/uvm_sim.tcl
xcelium> run
UVM_INFO /xcelium23.09/tools/methodology/UVM/CDNS-1.2/sv/src/base/uvm_root.svh(412) @ 0: reporter [UVM/RELNOTES] 
----------------------------------------------------------------
CDNS-UVM-1.2 (23.09-s001)
(C) 2007-2014 Mentor Graphics Corporation
(C) 2007-2014 Cadence Design Systems, Inc.
(C) 2006-2014 Synopsys, Inc.
(C) 2011-2013 Cypress Semiconductor Corp.
(C) 2013-2014 NVIDIA Corporation
----------------------------------------------------------------

  ***********       IMPORTANT RELEASE NOTES         ************

  You are using a version of the UVM library that has been compiled
  with `UVM_NO_DEPRECATED undefined.
  See http://www.eda.org/svdb/view.php?id=3313 for more details.

  You are using a version of the UVM library that has been compiled
  with `UVM_OBJECT_DO_NOT_NEED_CONSTRUCTOR undefined.
  See http://www.eda.org/svdb/view.php?id=3770 for more details.

      (Specify +UVM_NO_RELNOTES to turn off this notice)

UVM_INFO @ 0: reporter [RNTST] Running test test...
xmsim: *W,PRPASZ: Packed array at "worklib.uvm_pkg::uvm_string_to_bits.uvm_string_to_bits" of 115200 bits exceeds limit of 4096 - not probed
 Use 'probe -create -packed 115200 worklib.uvm_pkg::uvm_string_to_bits.uvm_string_to_bits' or 'setenv SHM_PACKED_LIMIT 115200' to adjust limit.
xmsim: *W,PRPASZ: Packed array at "worklib.uvm_pkg::uvm_bits_to_string.str" of 115200 bits exceeds limit of 4096 - not probed
 Use 'probe -create -packed 115200 worklib.uvm_pkg::uvm_bits_to_string.str' or 'setenv SHM_PACKED_LIMIT 115200' to adjust limit.
UVM_INFO /xcelium23.09/tools/methodology/UVM/CDNS-1.2/sv/src/base/uvm_root.svh(605) @ 0: reporter [UVMTOP] UVM testbench topology:
--------------------------------------------------------------
Name                       Type                    Size  Value
--------------------------------------------------------------
uvm_test_top               test                    -     @1882
  e                        env                     -     @1947
    a                      agent                   -     @2014
      drv                  driver                  -     @2196
        rsp_port           uvm_analysis_port       -     @2298
        seq_item_port      uvm_seq_item_pull_port  -     @2246
      mon                  monitor                 -     @2165
        send               uvm_analysis_port       -     @3008
      seqr                 uvm_sequencer           -     @2329
        rsp_export         uvm_analysis_export     -     @2390
        seq_item_export    uvm_seq_item_pull_imp   -     @2950
        arbitration_queue  array                   0     -    
        lock_queue         array                   0     -    
        num_last_reqs      integral                32    'd1  
        num_last_rsps      integral                32    'd1  
    cov_gp                 apb_coverage_model      -     @2076
      analysis_imp         uvm_analysis_imp        -     @2127
    sco                    scoreboard              -     @2045
      recv                 uvm_analysis_imp        -     @3084
--------------------------------------------------------------

UVM_INFO apb_driver.svh(25) @ 0: uvm_test_top.e.a.drv [DRV] RESET_PHASE
UVM_INFO apb_monitor.svh(25) @ 5: uvm_test_top.e.a.mon [MON] RESET DETECTED
UVM_INFO apb_coverage.svh(86) @ 5: uvm_test_top.e.cov_gp [COVERAGE] Got transaction for coverage
UVM_INFO apb_scoreboard.svh(20) @ 5: uvm_test_top.e.sco [SCO] RESET_STATE
UVM_INFO apb_driver.svh(25) @ 5: uvm_test_top.e.a.drv [DRV] RESET_PHASE
UVM_INFO apb_monitor.svh(25) @ 15: uvm_test_top.e.a.mon [MON] RESET DETECTED
UVM_INFO apb_coverage.svh(86) @ 15: uvm_test_top.e.cov_gp [COVERAGE] Got transaction for coverage
UVM_INFO apb_scoreboard.svh(20) @ 15: uvm_test_top.e.sco [SCO] RESET_STATE
UVM_INFO apb_driver.svh(25) @ 15: uvm_test_top.e.a.drv [DRV] RESET_PHASE
UVM_INFO apb_monitor.svh(25) @ 25: uvm_test_top.e.a.mon [MON] RESET DETECTED
UVM_INFO apb_coverage.svh(86) @ 25: uvm_test_top.e.cov_gp [COVERAGE] Got transaction for coverage
UVM_INFO apb_scoreboard.svh(20) @ 25: uvm_test_top.e.sco [SCO] RESET_STATE
UVM_INFO apb_driver.svh(25) @ 25: uvm_test_top.e.a.drv [DRV] RESET_PHASE
UVM_INFO apb_monitor.svh(25) @ 35: uvm_test_top.e.a.mon [MON] RESET DETECTED
UVM_INFO apb_coverage.svh(86) @ 35: uvm_test_top.e.cov_gp [COVERAGE] Got transaction for coverage
UVM_INFO apb_scoreboard.svh(20) @ 35: uvm_test_top.e.sco [SCO] RESET_STATE
UVM_INFO apb_driver.svh(25) @ 35: uvm_test_top.e.a.drv [DRV] RESET_PHASE
UVM_INFO apb_monitor.svh(25) @ 45: uvm_test_top.e.a.mon [MON] RESET DETECTED
UVM_INFO apb_coverage.svh(86) @ 45: uvm_test_top.e.cov_gp [COVERAGE] Got transaction for coverage
UVM_INFO apb_scoreboard.svh(20) @ 45: uvm_test_top.e.sco [SCO] RESET_STATE
UVM_INFO apb_driver.svh(56) @ 55: uvm_test_top.e.a.drv [DRV] mode:write addr:19 wdata:fb08832f rdata:x pslverr:x
UVM_INFO apb_monitor.svh(37) @ 60: uvm_test_top.e.a.mon [MON] [WRITE] Data:fb08832f, Addr:19, slverr:0
UVM_INFO apb_coverage.svh(86) @ 60: uvm_test_top.e.cov_gp [COVERAGE] Got transaction for coverage
UVM_INFO apb_scoreboard.svh(30) @ 60: uvm_test_top.e.sco [SCO] [SCO WRITE] Addr:19 data:fb08832f golden_data:fb08832f
UVM_INFO apb_driver.svh(56) @ 75: uvm_test_top.e.a.drv [DRV] mode:write addr:0 wdata:8176aaa1 rdata:x pslverr:x
UVM_INFO apb_monitor.svh(37) @ 80: uvm_test_top.e.a.mon [MON] [WRITE] Data:8176aaa1, Addr:0, slverr:0
UVM_INFO apb_coverage.svh(86) @ 80: uvm_test_top.e.cov_gp [COVERAGE] Got transaction for coverage
UVM_INFO apb_scoreboard.svh(30) @ 80: uvm_test_top.e.sco [SCO] [SCO WRITE] Addr:0 data:8176aaa1 golden_data:8176aaa1
UVM_INFO apb_driver.svh(56) @ 95: uvm_test_top.e.a.drv [DRV] mode:write addr:6681fdab wdata:2976d439 rdata:x pslverr:x
UVM_INFO apb_monitor.svh(37) @ 100: uvm_test_top.e.a.mon [MON] [WRITE] Data:2976d439, Addr:6681fdab, slverr:1
UVM_INFO apb_coverage.svh(86) @ 100: uvm_test_top.e.cov_gp [COVERAGE] Got transaction for coverage
UVM_INFO apb_scoreboard.svh(25) @ 100: uvm_test_top.e.sco [SCO] Slave error detectod-inavlid write transaction
UVM_INFO apb_driver.svh(56) @ 115: uvm_test_top.e.a.drv [DRV] mode:write addr:1 wdata:5e40c8bb rdata:x pslverr:x
UVM_INFO apb_monitor.svh(37) @ 120: uvm_test_top.e.a.mon [MON] [WRITE] Data:5e40c8bb, Addr:1, slverr:0
UVM_INFO apb_coverage.svh(86) @ 120: uvm_test_top.e.cov_gp [COVERAGE] Got transaction for coverage
UVM_INFO apb_scoreboard.svh(30) @ 120: uvm_test_top.e.sco [SCO] [SCO WRITE] Addr:1 data:5e40c8bb golden_data:5e40c8bb
UVM_INFO apb_driver.svh(56) @ 135: uvm_test_top.e.a.drv [DRV] mode:write addr:7f wdata:9a260305 rdata:x pslverr:x
UVM_INFO apb_monitor.svh(37) @ 140: uvm_test_top.e.a.mon [MON] [WRITE] Data:9a260305, Addr:7f, slverr:0
UVM_INFO apb_coverage.svh(86) @ 140: uvm_test_top.e.cov_gp [COVERAGE] Got transaction for coverage
UVM_INFO apb_scoreboard.svh(30) @ 140: uvm_test_top.e.sco [SCO] [SCO WRITE] Addr:7f data:9a260305 golden_data:9a260305
UVM_INFO apb_driver.svh(56) @ 155: uvm_test_top.e.a.drv [DRV] mode:write addr:2 wdata:99976f1b rdata:x pslverr:x
UVM_INFO apb_monitor.svh(37) @ 160: uvm_test_top.e.a.mon [MON] [WRITE] Data:99976f1b, Addr:2, slverr:0
UVM_INFO apb_coverage.svh(86) @ 160: uvm_test_top.e.cov_gp [COVERAGE] Got transaction for coverage
UVM_INFO apb_scoreboard.svh(30) @ 160: uvm_test_top.e.sco [SCO] [SCO WRITE] Addr:2 data:99976f1b golden_data:99976f1b
UVM_INFO apb_driver.svh(56) @ 175: uvm_test_top.e.a.drv [DRV] mode:write addr:69 wdata:db5369ef rdata:x pslverr:x
UVM_INFO apb_monitor.svh(37) @ 180: uvm_test_top.e.a.mon [MON] [WRITE] Data:db5369ef, Addr:69, slverr:0
UVM_INFO apb_coverage.svh(86) @ 180: uvm_test_top.e.cov_gp [COVERAGE] Got transaction for coverage
UVM_INFO apb_scoreboard.svh(30) @ 180: uvm_test_top.e.sco [SCO] [SCO WRITE] Addr:69 data:db5369ef golden_data:db5369ef
UVM_INFO apb_driver.svh(56) @ 195: uvm_test_top.e.a.drv [DRV] mode:write addr:3 wdata:81f2c367 rdata:x pslverr:x
UVM_INFO apb_monitor.svh(37) @ 200: uvm_test_top.e.a.mon [MON] [WRITE] Data:81f2c367, Addr:3, slverr:0
UVM_INFO apb_coverage.svh(86) @ 200: uvm_test_top.e.cov_gp [COVERAGE] Got transaction for coverage
UVM_INFO apb_scoreboard.svh(30) @ 200: uvm_test_top.e.sco [SCO] [SCO WRITE] Addr:3 data:81f2c367 golden_data:81f2c367
UVM_INFO apb_driver.svh(56) @ 215: uvm_test_top.e.a.drv [DRV] mode:write addr:c wdata:317b9dbb rdata:x pslverr:x
UVM_INFO apb_monitor.svh(37) @ 220: uvm_test_top.e.a.mon [MON] [WRITE] Data:317b9dbb, Addr:c, slverr:0
UVM_INFO apb_coverage.svh(86) @ 220: uvm_test_top.e.cov_gp [COVERAGE] Got transaction for coverage
UVM_INFO apb_scoreboard.svh(30) @ 220: uvm_test_top.e.sco [SCO] [SCO WRITE] Addr:c data:317b9dbb golden_data:317b9dbb
UVM_INFO apb_driver.svh(56) @ 235: uvm_test_top.e.a.drv [DRV] mode:write addr:4 wdata:49411e1e rdata:x pslverr:x
UVM_INFO apb_monitor.svh(37) @ 240: uvm_test_top.e.a.mon [MON] [WRITE] Data:49411e1e, Addr:4, slverr:0
UVM_INFO apb_coverage.svh(86) @ 240: uvm_test_top.e.cov_gp [COVERAGE] Got transaction for coverage
UVM_INFO apb_scoreboard.svh(30) @ 240: uvm_test_top.e.sco [SCO] [SCO WRITE] Addr:4 data:49411e1e golden_data:49411e1e
UVM_INFO apb_driver.svh(56) @ 255: uvm_test_top.e.a.drv [DRV] mode:write addr:4c wdata:41248a9f rdata:x pslverr:x
UVM_INFO apb_monitor.svh(37) @ 260: uvm_test_top.e.a.mon [MON] [WRITE] Data:41248a9f, Addr:4c, slverr:0
UVM_INFO apb_coverage.svh(86) @ 260: uvm_test_top.e.cov_gp [COVERAGE] Got transaction for coverage
UVM_INFO apb_scoreboard.svh(30) @ 260: uvm_test_top.e.sco [SCO] [SCO WRITE] Addr:4c data:41248a9f golden_data:41248a9f
UVM_INFO apb_driver.svh(56) @ 275: uvm_test_top.e.a.drv [DRV] mode:write addr:5 wdata:3e0c3206 rdata:x pslverr:x
UVM_INFO apb_monitor.svh(37) @ 280: uvm_test_top.e.a.mon [MON] [WRITE] Data:3e0c3206, Addr:5, slverr:0
UVM_INFO apb_coverage.svh(86) @ 280: uvm_test_top.e.cov_gp [COVERAGE] Got transaction for coverage
UVM_INFO apb_scoreboard.svh(30) @ 280: uvm_test_top.e.sco [SCO] [SCO WRITE] Addr:5 data:3e0c3206 golden_data:3e0c3206
UVM_INFO apb_driver.svh(56) @ 295: uvm_test_top.e.a.drv [DRV] mode:write addr:4fa528d wdata:f127bba1 rdata:x pslverr:x
UVM_INFO apb_monitor.svh(37) @ 300: uvm_test_top.e.a.mon [MON] [WRITE] Data:f127bba1, Addr:4fa528d, slverr:1
UVM_INFO apb_coverage.svh(86) @ 300: uvm_test_top.e.cov_gp [COVERAGE] Got transaction for coverage
UVM_INFO apb_scoreboard.svh(25) @ 300: uvm_test_top.e.sco [SCO] Slave error detectod-inavlid write transaction
UVM_INFO apb_driver.svh(56) @ 315: uvm_test_top.e.a.drv [DRV] mode:write addr:6 wdata:1c52f852 rdata:x pslverr:x
UVM_INFO apb_monitor.svh(37) @ 320: uvm_test_top.e.a.mon [MON] [WRITE] Data:1c52f852, Addr:6, slverr:0
UVM_INFO apb_coverage.svh(86) @ 320: uvm_test_top.e.cov_gp [COVERAGE] Got transaction for coverage
UVM_INFO apb_scoreboard.svh(30) @ 320: uvm_test_top.e.sco [SCO] [SCO WRITE] Addr:6 data:1c52f852 golden_data:1c52f852
UVM_INFO apb_driver.svh(56) @ 335: uvm_test_top.e.a.drv [DRV] mode:write addr:a57cab7c wdata:4fac6ebf rdata:x pslverr:x
UVM_INFO apb_monitor.svh(37) @ 340: uvm_test_top.e.a.mon [MON] [WRITE] Data:4fac6ebf, Addr:a57cab7c, slverr:1
UVM_INFO apb_coverage.svh(86) @ 340: uvm_test_top.e.cov_gp [COVERAGE] Got transaction for coverage
UVM_INFO apb_scoreboard.svh(25) @ 340: uvm_test_top.e.sco [SCO] Slave error detectod-inavlid write transaction
UVM_INFO apb_driver.svh(56) @ 355: uvm_test_top.e.a.drv [DRV] mode:write addr:7 wdata:521d8d95 rdata:x pslverr:x
UVM_INFO apb_monitor.svh(37) @ 360: uvm_test_top.e.a.mon [MON] [WRITE] Data:521d8d95, Addr:7, slverr:0
UVM_INFO apb_coverage.svh(86) @ 360: uvm_test_top.e.cov_gp [COVERAGE] Got transaction for coverage
UVM_INFO apb_scoreboard.svh(30) @ 360: uvm_test_top.e.sco [SCO] [SCO WRITE] Addr:7 data:521d8d95 golden_data:521d8d95
UVM_INFO apb_driver.svh(56) @ 375: uvm_test_top.e.a.drv [DRV] mode:write addr:2f wdata:a92fb625 rdata:x pslverr:x
UVM_INFO apb_monitor.svh(37) @ 380: uvm_test_top.e.a.mon [MON] [WRITE] Data:a92fb625, Addr:2f, slverr:0
UVM_INFO apb_coverage.svh(86) @ 380: uvm_test_top.e.cov_gp [COVERAGE] Got transaction for coverage
UVM_INFO apb_scoreboard.svh(30) @ 380: uvm_test_top.e.sco [SCO] [SCO WRITE] Addr:2f data:a92fb625 golden_data:a92fb625
UVM_INFO apb_driver.svh(56) @ 395: uvm_test_top.e.a.drv [DRV] mode:write addr:8 wdata:d3e6eb69 rdata:x pslverr:x
UVM_INFO apb_monitor.svh(37) @ 400: uvm_test_top.e.a.mon [MON] [WRITE] Data:d3e6eb69, Addr:8, slverr:0
UVM_INFO apb_coverage.svh(86) @ 400: uvm_test_top.e.cov_gp [COVERAGE] Got transaction for coverage
UVM_INFO apb_scoreboard.svh(30) @ 400: uvm_test_top.e.sco [SCO] [SCO WRITE] Addr:8 data:d3e6eb69 golden_data:d3e6eb69
UVM_INFO apb_driver.svh(56) @ 415: uvm_test_top.e.a.drv [DRV] mode:write addr:c wdata:c0b01cba rdata:x pslverr:x
UVM_INFO apb_monitor.svh(37) @ 420: uvm_test_top.e.a.mon [MON] [WRITE] Data:c0b01cba, Addr:c, slverr:0
UVM_INFO apb_coverage.svh(86) @ 420: uvm_test_top.e.cov_gp [COVERAGE] Got transaction for coverage
UVM_INFO apb_scoreboard.svh(30) @ 420: uvm_test_top.e.sco [SCO] [SCO WRITE] Addr:c data:c0b01cba golden_data:c0b01cba
UVM_INFO apb_driver.svh(56) @ 435: uvm_test_top.e.a.drv [DRV] mode:write addr:9 wdata:dcad2add rdata:x pslverr:x
UVM_INFO apb_monitor.svh(37) @ 440: uvm_test_top.e.a.mon [MON] [WRITE] Data:dcad2add, Addr:9, slverr:0
UVM_INFO apb_coverage.svh(86) @ 440: uvm_test_top.e.cov_gp [COVERAGE] Got transaction for coverage
UVM_INFO apb_scoreboard.svh(30) @ 440: uvm_test_top.e.sco [SCO] [SCO WRITE] Addr:9 data:dcad2add golden_data:dcad2add
UVM_INFO apb_driver.svh(56) @ 455: uvm_test_top.e.a.drv [DRV] mode:write addr:5 wdata:62f91781 rdata:x pslverr:x
UVM_INFO apb_monitor.svh(37) @ 460: uvm_test_top.e.a.mon [MON] [WRITE] Data:62f91781, Addr:5, slverr:0
UVM_INFO apb_coverage.svh(86) @ 460: uvm_test_top.e.cov_gp [COVERAGE] Got transaction for coverage
UVM_INFO apb_scoreboard.svh(30) @ 460: uvm_test_top.e.sco [SCO] [SCO WRITE] Addr:5 data:62f91781 golden_data:62f91781
UVM_INFO apb_driver.svh(56) @ 475: uvm_test_top.e.a.drv [DRV] mode:write addr:a wdata:b5d6bba1 rdata:x pslverr:x
UVM_INFO apb_monitor.svh(37) @ 480: uvm_test_top.e.a.mon [MON] [WRITE] Data:b5d6bba1, Addr:a, slverr:0
UVM_INFO apb_coverage.svh(86) @ 480: uvm_test_top.e.cov_gp [COVERAGE] Got transaction for coverage
UVM_INFO apb_scoreboard.svh(30) @ 480: uvm_test_top.e.sco [SCO] [SCO WRITE] Addr:a data:b5d6bba1 golden_data:b5d6bba1
UVM_INFO apb_driver.svh(56) @ 495: uvm_test_top.e.a.drv [DRV] mode:write addr:4a wdata:6e340f10 rdata:x pslverr:x
UVM_INFO apb_monitor.svh(37) @ 500: uvm_test_top.e.a.mon [MON] [WRITE] Data:6e340f10, Addr:4a, slverr:0
UVM_INFO apb_coverage.svh(86) @ 500: uvm_test_top.e.cov_gp [COVERAGE] Got transaction for coverage
UVM_INFO apb_scoreboard.svh(30) @ 500: uvm_test_top.e.sco [SCO] [SCO WRITE] Addr:4a data:6e340f10 golden_data:6e340f10
UVM_INFO apb_driver.svh(56) @ 515: uvm_test_top.e.a.drv [DRV] mode:write addr:b wdata:62c3bbf2 rdata:x pslverr:x
UVM_INFO apb_monitor.svh(37) @ 520: uvm_test_top.e.a.mon [MON] [WRITE] Data:62c3bbf2, Addr:b, slverr:0
UVM_INFO apb_coverage.svh(86) @ 520: uvm_test_top.e.cov_gp [COVERAGE] Got transaction for coverage
UVM_INFO apb_scoreboard.svh(30) @ 520: uvm_test_top.e.sco [SCO] [SCO WRITE] Addr:b data:62c3bbf2 golden_data:62c3bbf2
UVM_INFO apb_driver.svh(56) @ 535: uvm_test_top.e.a.drv [DRV] mode:write addr:7 wdata:82ab976a rdata:x pslverr:x
UVM_INFO apb_monitor.svh(37) @ 540: uvm_test_top.e.a.mon [MON] [WRITE] Data:82ab976a, Addr:7, slverr:0
UVM_INFO apb_coverage.svh(86) @ 540: uvm_test_top.e.cov_gp [COVERAGE] Got transaction for coverage
UVM_INFO apb_scoreboard.svh(30) @ 540: uvm_test_top.e.sco [SCO] [SCO WRITE] Addr:7 data:82ab976a golden_data:82ab976a
UVM_INFO apb_driver.svh(56) @ 555: uvm_test_top.e.a.drv [DRV] mode:write addr:c wdata:cc355d45 rdata:x pslverr:x
UVM_INFO apb_monitor.svh(37) @ 560: uvm_test_top.e.a.mon [MON] [WRITE] Data:cc355d45, Addr:c, slverr:0
UVM_INFO apb_coverage.svh(86) @ 560: uvm_test_top.e.cov_gp [COVERAGE] Got transaction for coverage
UVM_INFO apb_scoreboard.svh(30) @ 560: uvm_test_top.e.sco [SCO] [SCO WRITE] Addr:c data:cc355d45 golden_data:cc355d45
UVM_INFO apb_driver.svh(56) @ 575: uvm_test_top.e.a.drv [DRV] mode:write addr:73 wdata:83d5eaab rdata:x pslverr:x
UVM_INFO apb_monitor.svh(37) @ 580: uvm_test_top.e.a.mon [MON] [WRITE] Data:83d5eaab, Addr:73, slverr:0
UVM_INFO apb_coverage.svh(86) @ 580: uvm_test_top.e.cov_gp [COVERAGE] Got transaction for coverage
UVM_INFO apb_scoreboard.svh(30) @ 580: uvm_test_top.e.sco [SCO] [SCO WRITE] Addr:73 data:83d5eaab golden_data:83d5eaab
UVM_INFO apb_driver.svh(56) @ 595: uvm_test_top.e.a.drv [DRV] mode:write addr:d wdata:c76101b4 rdata:x pslverr:x
UVM_INFO apb_monitor.svh(37) @ 600: uvm_test_top.e.a.mon [MON] [WRITE] Data:c76101b4, Addr:d, slverr:0
UVM_INFO apb_coverage.svh(86) @ 600: uvm_test_top.e.cov_gp [COVERAGE] Got transaction for coverage
UVM_INFO apb_scoreboard.svh(30) @ 600: uvm_test_top.e.sco [SCO] [SCO WRITE] Addr:d data:c76101b4 golden_data:c76101b4
UVM_INFO apb_driver.svh(56) @ 615: uvm_test_top.e.a.drv [DRV] mode:write addr:4a wdata:4755c33d rdata:x pslverr:x
UVM_INFO apb_monitor.svh(37) @ 620: uvm_test_top.e.a.mon [MON] [WRITE] Data:4755c33d, Addr:4a, slverr:0
UVM_INFO apb_coverage.svh(86) @ 620: uvm_test_top.e.cov_gp [COVERAGE] Got transaction for coverage
UVM_INFO apb_scoreboard.svh(30) @ 620: uvm_test_top.e.sco [SCO] [SCO WRITE] Addr:4a data:4755c33d golden_data:4755c33d
UVM_INFO apb_driver.svh(56) @ 635: uvm_test_top.e.a.drv [DRV] mode:write addr:e wdata:14d37e2b rdata:x pslverr:x
UVM_INFO apb_monitor.svh(37) @ 640: uvm_test_top.e.a.mon [MON] [WRITE] Data:14d37e2b, Addr:e, slverr:0
UVM_INFO apb_coverage.svh(86) @ 640: uvm_test_top.e.cov_gp [COVERAGE] Got transaction for coverage
UVM_INFO apb_scoreboard.svh(30) @ 640: uvm_test_top.e.sco [SCO] [SCO WRITE] Addr:e data:14d37e2b golden_data:14d37e2b
UVM_INFO apb_driver.svh(56) @ 655: uvm_test_top.e.a.drv [DRV] mode:write addr:1 wdata:d40f3570 rdata:x pslverr:x
UVM_INFO apb_monitor.svh(37) @ 660: uvm_test_top.e.a.mon [MON] [WRITE] Data:d40f3570, Addr:1, slverr:0
UVM_INFO apb_coverage.svh(86) @ 660: uvm_test_top.e.cov_gp [COVERAGE] Got transaction for coverage
UVM_INFO apb_scoreboard.svh(30) @ 660: uvm_test_top.e.sco [SCO] [SCO WRITE] Addr:1 data:d40f3570 golden_data:d40f3570
UVM_INFO apb_driver.svh(56) @ 675: uvm_test_top.e.a.drv [DRV] mode:write addr:f wdata:3304ad50 rdata:x pslverr:x
UVM_INFO apb_monitor.svh(37) @ 680: uvm_test_top.e.a.mon [MON] [WRITE] Data:3304ad50, Addr:f, slverr:0
UVM_INFO apb_coverage.svh(86) @ 680: uvm_test_top.e.cov_gp [COVERAGE] Got transaction for coverage
UVM_INFO apb_scoreboard.svh(30) @ 680: uvm_test_top.e.sco [SCO] [SCO WRITE] Addr:f data:3304ad50 golden_data:3304ad50
UVM_INFO apb_driver.svh(56) @ 695: uvm_test_top.e.a.drv [DRV] mode:write addr:d wdata:2216f93f rdata:x pslverr:x
UVM_INFO apb_monitor.svh(37) @ 700: uvm_test_top.e.a.mon [MON] [WRITE] Data:2216f93f, Addr:d, slverr:0
UVM_INFO apb_coverage.svh(86) @ 700: uvm_test_top.e.cov_gp [COVERAGE] Got transaction for coverage
UVM_INFO apb_scoreboard.svh(30) @ 700: uvm_test_top.e.sco [SCO] [SCO WRITE] Addr:d data:2216f93f golden_data:2216f93f
UVM_INFO apb_driver.svh(56) @ 715: uvm_test_top.e.a.drv [DRV] mode:write addr:10 wdata:a0bb3f35 rdata:x pslverr:x
UVM_INFO apb_monitor.svh(37) @ 720: uvm_test_top.e.a.mon [MON] [WRITE] Data:a0bb3f35, Addr:10, slverr:0
UVM_INFO apb_coverage.svh(86) @ 720: uvm_test_top.e.cov_gp [COVERAGE] Got transaction for coverage
UVM_INFO apb_scoreboard.svh(30) @ 720: uvm_test_top.e.sco [SCO] [SCO WRITE] Addr:10 data:a0bb3f35 golden_data:a0bb3f35
UVM_INFO apb_driver.svh(56) @ 735: uvm_test_top.e.a.drv [DRV] mode:write addr:4f wdata:91c64826 rdata:x pslverr:x
UVM_INFO apb_monitor.svh(37) @ 740: uvm_test_top.e.a.mon [MON] [WRITE] Data:91c64826, Addr:4f, slverr:0
UVM_INFO apb_coverage.svh(86) @ 740: uvm_test_top.e.cov_gp [COVERAGE] Got transaction for coverage
UVM_INFO apb_scoreboard.svh(30) @ 740: uvm_test_top.e.sco [SCO] [SCO WRITE] Addr:4f data:91c64826 golden_data:91c64826
UVM_INFO apb_driver.svh(56) @ 755: uvm_test_top.e.a.drv [DRV] mode:write addr:11 wdata:eb2771be rdata:x pslverr:x
UVM_INFO apb_monitor.svh(37) @ 760: uvm_test_top.e.a.mon [MON] [WRITE] Data:eb2771be, Addr:11, slverr:0
UVM_INFO apb_coverage.svh(86) @ 760: uvm_test_top.e.cov_gp [COVERAGE] Got transaction for coverage
UVM_INFO apb_scoreboard.svh(30) @ 760: uvm_test_top.e.sco [SCO] [SCO WRITE] Addr:11 data:eb2771be golden_data:eb2771be
UVM_INFO apb_driver.svh(56) @ 775: uvm_test_top.e.a.drv [DRV] mode:write addr:140fe2b7 wdata:874d01ec rdata:x pslverr:x
UVM_INFO apb_monitor.svh(37) @ 780: uvm_test_top.e.a.mon [MON] [WRITE] Data:874d01ec, Addr:140fe2b7, slverr:1
UVM_INFO apb_coverage.svh(86) @ 780: uvm_test_top.e.cov_gp [COVERAGE] Got transaction for coverage
UVM_INFO apb_scoreboard.svh(25) @ 780: uvm_test_top.e.sco [SCO] Slave error detectod-inavlid write transaction
UVM_INFO apb_driver.svh(56) @ 795: uvm_test_top.e.a.drv [DRV] mode:write addr:12 wdata:a3b71dd2 rdata:x pslverr:x
UVM_INFO apb_monitor.svh(37) @ 800: uvm_test_top.e.a.mon [MON] [WRITE] Data:a3b71dd2, Addr:12, slverr:0
UVM_INFO apb_coverage.svh(86) @ 800: uvm_test_top.e.cov_gp [COVERAGE] Got transaction for coverage
UVM_INFO apb_scoreboard.svh(30) @ 800: uvm_test_top.e.sco [SCO] [SCO WRITE] Addr:12 data:a3b71dd2 golden_data:a3b71dd2
UVM_INFO apb_driver.svh(56) @ 815: uvm_test_top.e.a.drv [DRV] mode:write addr:72 wdata:c9267e76 rdata:x pslverr:x
UVM_INFO apb_monitor.svh(37) @ 820: uvm_test_top.e.a.mon [MON] [WRITE] Data:c9267e76, Addr:72, slverr:0
UVM_INFO apb_coverage.svh(86) @ 820: uvm_test_top.e.cov_gp [COVERAGE] Got transaction for coverage
UVM_INFO apb_scoreboard.svh(30) @ 820: uvm_test_top.e.sco [SCO] [SCO WRITE] Addr:72 data:c9267e76 golden_data:c9267e76
UVM_INFO apb_driver.svh(56) @ 835: uvm_test_top.e.a.drv [DRV] mode:write addr:13 wdata:19be4542 rdata:x pslverr:x
UVM_INFO apb_monitor.svh(37) @ 840: uvm_test_top.e.a.mon [MON] [WRITE] Data:19be4542, Addr:13, slverr:0
UVM_INFO apb_coverage.svh(86) @ 840: uvm_test_top.e.cov_gp [COVERAGE] Got transaction for coverage
UVM_INFO apb_scoreboard.svh(30) @ 840: uvm_test_top.e.sco [SCO] [SCO WRITE] Addr:13 data:19be4542 golden_data:19be4542
UVM_INFO apb_driver.svh(56) @ 855: uvm_test_top.e.a.drv [DRV] mode:write addr:5e wdata:2fdd68ad rdata:x pslverr:x
UVM_INFO apb_monitor.svh(37) @ 860: uvm_test_top.e.a.mon [MON] [WRITE] Data:2fdd68ad, Addr:5e, slverr:0
UVM_INFO apb_coverage.svh(86) @ 860: uvm_test_top.e.cov_gp [COVERAGE] Got transaction for coverage
UVM_INFO apb_scoreboard.svh(30) @ 860: uvm_test_top.e.sco [SCO] [SCO WRITE] Addr:5e data:2fdd68ad golden_data:2fdd68ad
UVM_INFO apb_driver.svh(56) @ 875: uvm_test_top.e.a.drv [DRV] mode:write addr:14 wdata:73ca0d7c rdata:x pslverr:x
UVM_INFO apb_monitor.svh(37) @ 880: uvm_test_top.e.a.mon [MON] [WRITE] Data:73ca0d7c, Addr:14, slverr:0
UVM_INFO apb_coverage.svh(86) @ 880: uvm_test_top.e.cov_gp [COVERAGE] Got transaction for coverage
UVM_INFO apb_scoreboard.svh(30) @ 880: uvm_test_top.e.sco [SCO] [SCO WRITE] Addr:14 data:73ca0d7c golden_data:73ca0d7c
UVM_INFO apb_driver.svh(56) @ 895: uvm_test_top.e.a.drv [DRV] mode:write addr:2a wdata:fab89512 rdata:x pslverr:x
UVM_INFO apb_monitor.svh(37) @ 900: uvm_test_top.e.a.mon [MON] [WRITE] Data:fab89512, Addr:2a, slverr:0
UVM_INFO apb_coverage.svh(86) @ 900: uvm_test_top.e.cov_gp [COVERAGE] Got transaction for coverage
UVM_INFO apb_scoreboard.svh(30) @ 900: uvm_test_top.e.sco [SCO] [SCO WRITE] Addr:2a data:fab89512 golden_data:fab89512
UVM_INFO apb_driver.svh(56) @ 915: uvm_test_top.e.a.drv [DRV] mode:write addr:15 wdata:84bdd2ee rdata:x pslverr:x
UVM_INFO apb_monitor.svh(37) @ 920: uvm_test_top.e.a.mon [MON] [WRITE] Data:84bdd2ee, Addr:15, slverr:0
UVM_INFO apb_coverage.svh(86) @ 920: uvm_test_top.e.cov_gp [COVERAGE] Got transaction for coverage
UVM_INFO apb_scoreboard.svh(30) @ 920: uvm_test_top.e.sco [SCO] [SCO WRITE] Addr:15 data:84bdd2ee golden_data:84bdd2ee
UVM_INFO apb_driver.svh(56) @ 935: uvm_test_top.e.a.drv [DRV] mode:write addr:38 wdata:783acd2f rdata:x pslverr:x
UVM_INFO apb_monitor.svh(37) @ 940: uvm_test_top.e.a.mon [MON] [WRITE] Data:783acd2f, Addr:38, slverr:0
UVM_INFO apb_coverage.svh(86) @ 940: uvm_test_top.e.cov_gp [COVERAGE] Got transaction for coverage
UVM_INFO apb_scoreboard.svh(30) @ 940: uvm_test_top.e.sco [SCO] [SCO WRITE] Addr:38 data:783acd2f golden_data:783acd2f
UVM_INFO apb_driver.svh(56) @ 955: uvm_test_top.e.a.drv [DRV] mode:write addr:16 wdata:78b3c139 rdata:x pslverr:x
UVM_INFO apb_monitor.svh(37) @ 960: uvm_test_top.e.a.mon [MON] [WRITE] Data:78b3c139, Addr:16, slverr:0
UVM_INFO apb_coverage.svh(86) @ 960: uvm_test_top.e.cov_gp [COVERAGE] Got transaction for coverage
UVM_INFO apb_scoreboard.svh(30) @ 960: uvm_test_top.e.sco [SCO] [SCO WRITE] Addr:16 data:78b3c139 golden_data:78b3c139
UVM_INFO apb_driver.svh(56) @ 975: uvm_test_top.e.a.drv [DRV] mode:write addr:35 wdata:f6c0ccc5 rdata:x pslverr:x
UVM_INFO apb_monitor.svh(37) @ 980: uvm_test_top.e.a.mon [MON] [WRITE] Data:f6c0ccc5, Addr:35, slverr:0
UVM_INFO apb_coverage.svh(86) @ 980: uvm_test_top.e.cov_gp [COVERAGE] Got transaction for coverage
UVM_INFO apb_scoreboard.svh(30) @ 980: uvm_test_top.e.sco [SCO] [SCO WRITE] Addr:35 data:f6c0ccc5 golden_data:f6c0ccc5
UVM_INFO apb_driver.svh(56) @ 995: uvm_test_top.e.a.drv [DRV] mode:write addr:17 wdata:35911c1c rdata:x pslverr:x
UVM_INFO apb_monitor.svh(37) @ 1000: uvm_test_top.e.a.mon [MON] [WRITE] Data:35911c1c, Addr:17, slverr:0
UVM_INFO apb_coverage.svh(86) @ 1000: uvm_test_top.e.cov_gp [COVERAGE] Got transaction for coverage
UVM_INFO apb_scoreboard.svh(30) @ 1000: uvm_test_top.e.sco [SCO] [SCO WRITE] Addr:17 data:35911c1c golden_data:35911c1c
UVM_INFO apb_driver.svh(56) @ 1015: uvm_test_top.e.a.drv [DRV] mode:write addr:2 wdata:2fc26cc4 rdata:x pslverr:x
UVM_INFO apb_monitor.svh(37) @ 1020: uvm_test_top.e.a.mon [MON] [WRITE] Data:2fc26cc4, Addr:2, slverr:0
UVM_INFO apb_coverage.svh(86) @ 1020: uvm_test_top.e.cov_gp [COVERAGE] Got transaction for coverage
UVM_INFO apb_scoreboard.svh(30) @ 1020: uvm_test_top.e.sco [SCO] [SCO WRITE] Addr:2 data:2fc26cc4 golden_data:2fc26cc4
UVM_INFO apb_driver.svh(56) @ 1035: uvm_test_top.e.a.drv [DRV] mode:write addr:18 wdata:b6e251d rdata:x pslverr:x
UVM_INFO apb_monitor.svh(37) @ 1040: uvm_test_top.e.a.mon [MON] [WRITE] Data:b6e251d, Addr:18, slverr:0
UVM_INFO apb_coverage.svh(86) @ 1040: uvm_test_top.e.cov_gp [COVERAGE] Got transaction for coverage
UVM_INFO apb_scoreboard.svh(30) @ 1040: uvm_test_top.e.sco [SCO] [SCO WRITE] Addr:18 data:b6e251d golden_data:b6e251d
UVM_INFO apb_driver.svh(56) @ 1055: uvm_test_top.e.a.drv [DRV] mode:write addr:8 wdata:40a76be4 rdata:x pslverr:x
UVM_INFO apb_monitor.svh(37) @ 1060: uvm_test_top.e.a.mon [MON] [WRITE] Data:40a76be4, Addr:8, slverr:0
UVM_INFO apb_coverage.svh(86) @ 1060: uvm_test_top.e.cov_gp [COVERAGE] Got transaction for coverage
UVM_INFO apb_scoreboard.svh(30) @ 1060: uvm_test_top.e.sco [SCO] [SCO WRITE] Addr:8 data:40a76be4 golden_data:40a76be4
UVM_INFO apb_driver.svh(56) @ 1075: uvm_test_top.e.a.drv [DRV] mode:write addr:19 wdata:10a449f6 rdata:x pslverr:x
UVM_INFO apb_monitor.svh(37) @ 1080: uvm_test_top.e.a.mon [MON] [WRITE] Data:10a449f6, Addr:19, slverr:0
UVM_INFO apb_coverage.svh(86) @ 1080: uvm_test_top.e.cov_gp [COVERAGE] Got transaction for coverage
UVM_INFO apb_scoreboard.svh(30) @ 1080: uvm_test_top.e.sco [SCO] [SCO WRITE] Addr:19 data:10a449f6 golden_data:10a449f6
UVM_INFO apb_driver.svh(56) @ 1095: uvm_test_top.e.a.drv [DRV] mode:write addr:2f wdata:4d39a693 rdata:x pslverr:x
UVM_INFO apb_monitor.svh(37) @ 1100: uvm_test_top.e.a.mon [MON] [WRITE] Data:4d39a693, Addr:2f, slverr:0
UVM_INFO apb_coverage.svh(86) @ 1100: uvm_test_top.e.cov_gp [COVERAGE] Got transaction for coverage
UVM_INFO apb_scoreboard.svh(30) @ 1100: uvm_test_top.e.sco [SCO] [SCO WRITE] Addr:2f data:4d39a693 golden_data:4d39a693
UVM_INFO apb_driver.svh(56) @ 1115: uvm_test_top.e.a.drv [DRV] mode:write addr:1a wdata:45b407c4 rdata:x pslverr:x
UVM_INFO apb_monitor.svh(37) @ 1120: uvm_test_top.e.a.mon [MON] [WRITE] Data:45b407c4, Addr:1a, slverr:0
UVM_INFO apb_coverage.svh(86) @ 1120: uvm_test_top.e.cov_gp [COVERAGE] Got transaction for coverage
UVM_INFO apb_scoreboard.svh(30) @ 1120: uvm_test_top.e.sco [SCO] [SCO WRITE] Addr:1a data:45b407c4 golden_data:45b407c4
UVM_INFO apb_driver.svh(56) @ 1135: uvm_test_top.e.a.drv [DRV] mode:write addr:38 wdata:c87be496 rdata:x pslverr:x
UVM_INFO apb_monitor.svh(37) @ 1140: uvm_test_top.e.a.mon [MON] [WRITE] Data:c87be496, Addr:38, slverr:0
UVM_INFO apb_coverage.svh(86) @ 1140: uvm_test_top.e.cov_gp [COVERAGE] Got transaction for coverage
UVM_INFO apb_scoreboard.svh(30) @ 1140: uvm_test_top.e.sco [SCO] [SCO WRITE] Addr:38 data:c87be496 golden_data:c87be496
UVM_INFO apb_driver.svh(56) @ 1155: uvm_test_top.e.a.drv [DRV] mode:write addr:1b wdata:5cdcaef0 rdata:x pslverr:x
UVM_INFO apb_monitor.svh(37) @ 1160: uvm_test_top.e.a.mon [MON] [WRITE] Data:5cdcaef0, Addr:1b, slverr:0
UVM_INFO apb_coverage.svh(86) @ 1160: uvm_test_top.e.cov_gp [COVERAGE] Got transaction for coverage
UVM_INFO apb_scoreboard.svh(30) @ 1160: uvm_test_top.e.sco [SCO] [SCO WRITE] Addr:1b data:5cdcaef0 golden_data:5cdcaef0
UVM_INFO apb_driver.svh(56) @ 1175: uvm_test_top.e.a.drv [DRV] mode:write addr:63 wdata:849d9173 rdata:x pslverr:x
UVM_INFO apb_monitor.svh(37) @ 1180: uvm_test_top.e.a.mon [MON] [WRITE] Data:849d9173, Addr:63, slverr:0
UVM_INFO apb_coverage.svh(86) @ 1180: uvm_test_top.e.cov_gp [COVERAGE] Got transaction for coverage
UVM_INFO apb_scoreboard.svh(30) @ 1180: uvm_test_top.e.sco [SCO] [SCO WRITE] Addr:63 data:849d9173 golden_data:849d9173
UVM_INFO apb_driver.svh(56) @ 1195: uvm_test_top.e.a.drv [DRV] mode:write addr:1c wdata:c177f3db rdata:x pslverr:x
UVM_INFO apb_monitor.svh(37) @ 1200: uvm_test_top.e.a.mon [MON] [WRITE] Data:c177f3db, Addr:1c, slverr:0
UVM_INFO apb_coverage.svh(86) @ 1200: uvm_test_top.e.cov_gp [COVERAGE] Got transaction for coverage
UVM_INFO apb_scoreboard.svh(30) @ 1200: uvm_test_top.e.sco [SCO] [SCO WRITE] Addr:1c data:c177f3db golden_data:c177f3db
UVM_INFO apb_driver.svh(56) @ 1215: uvm_test_top.e.a.drv [DRV] mode:write addr:3e wdata:c78d024d rdata:x pslverr:x
UVM_INFO apb_monitor.svh(37) @ 1220: uvm_test_top.e.a.mon [MON] [WRITE] Data:c78d024d, Addr:3e, slverr:0
UVM_INFO apb_coverage.svh(86) @ 1220: uvm_test_top.e.cov_gp [COVERAGE] Got transaction for coverage
UVM_INFO apb_scoreboard.svh(30) @ 1220: uvm_test_top.e.sco [SCO] [SCO WRITE] Addr:3e data:c78d024d golden_data:c78d024d
UVM_INFO apb_driver.svh(56) @ 1235: uvm_test_top.e.a.drv [DRV] mode:write addr:1d wdata:3b1af84a rdata:x pslverr:x
UVM_INFO apb_monitor.svh(37) @ 1240: uvm_test_top.e.a.mon [MON] [WRITE] Data:3b1af84a, Addr:1d, slverr:0
UVM_INFO apb_coverage.svh(86) @ 1240: uvm_test_top.e.cov_gp [COVERAGE] Got transaction for coverage
UVM_INFO apb_scoreboard.svh(30) @ 1240: uvm_test_top.e.sco [SCO] [SCO WRITE] Addr:1d data:3b1af84a golden_data:3b1af84a
UVM_INFO apb_driver.svh(56) @ 1255: uvm_test_top.e.a.drv [DRV] mode:write addr:6c wdata:1e39d832 rdata:x pslverr:x
UVM_INFO apb_monitor.svh(37) @ 1260: uvm_test_top.e.a.mon [MON] [WRITE] Data:1e39d832, Addr:6c, slverr:0
UVM_INFO apb_coverage.svh(86) @ 1260: uvm_test_top.e.cov_gp [COVERAGE] Got transaction for coverage
UVM_INFO apb_scoreboard.svh(30) @ 1260: uvm_test_top.e.sco [SCO] [SCO WRITE] Addr:6c data:1e39d832 golden_data:1e39d832
UVM_INFO apb_driver.svh(56) @ 1275: uvm_test_top.e.a.drv [DRV] mode:write addr:1e wdata:48693996 rdata:x pslverr:x
UVM_INFO apb_monitor.svh(37) @ 1280: uvm_test_top.e.a.mon [MON] [WRITE] Data:48693996, Addr:1e, slverr:0
UVM_INFO apb_coverage.svh(86) @ 1280: uvm_test_top.e.cov_gp [COVERAGE] Got transaction for coverage
UVM_INFO apb_scoreboard.svh(30) @ 1280: uvm_test_top.e.sco [SCO] [SCO WRITE] Addr:1e data:48693996 golden_data:48693996
UVM_INFO apb_driver.svh(56) @ 1295: uvm_test_top.e.a.drv [DRV] mode:write addr:30 wdata:58456d47 rdata:x pslverr:x
UVM_INFO apb_monitor.svh(37) @ 1300: uvm_test_top.e.a.mon [MON] [WRITE] Data:58456d47, Addr:30, slverr:0
UVM_INFO apb_coverage.svh(86) @ 1300: uvm_test_top.e.cov_gp [COVERAGE] Got transaction for coverage
UVM_INFO apb_scoreboard.svh(30) @ 1300: uvm_test_top.e.sco [SCO] [SCO WRITE] Addr:30 data:58456d47 golden_data:58456d47
UVM_INFO apb_driver.svh(56) @ 1315: uvm_test_top.e.a.drv [DRV] mode:write addr:1f wdata:dbc8f91 rdata:x pslverr:x
UVM_INFO apb_monitor.svh(37) @ 1320: uvm_test_top.e.a.mon [MON] [WRITE] Data:dbc8f91, Addr:1f, slverr:0
UVM_INFO apb_coverage.svh(86) @ 1320: uvm_test_top.e.cov_gp [COVERAGE] Got transaction for coverage
UVM_INFO apb_scoreboard.svh(30) @ 1320: uvm_test_top.e.sco [SCO] [SCO WRITE] Addr:1f data:dbc8f91 golden_data:dbc8f91
UVM_INFO apb_driver.svh(56) @ 1335: uvm_test_top.e.a.drv [DRV] mode:write addr:2c wdata:43e874fa rdata:x pslverr:x
UVM_INFO apb_monitor.svh(37) @ 1340: uvm_test_top.e.a.mon [MON] [WRITE] Data:43e874fa, Addr:2c, slverr:0
UVM_INFO apb_coverage.svh(86) @ 1340: uvm_test_top.e.cov_gp [COVERAGE] Got transaction for coverage
UVM_INFO apb_scoreboard.svh(30) @ 1340: uvm_test_top.e.sco [SCO] [SCO WRITE] Addr:2c data:43e874fa golden_data:43e874fa
UVM_INFO apb_driver.svh(56) @ 1355: uvm_test_top.e.a.drv [DRV] mode:write addr:20 wdata:73752839 rdata:x pslverr:x
UVM_INFO apb_monitor.svh(37) @ 1360: uvm_test_top.e.a.mon [MON] [WRITE] Data:73752839, Addr:20, slverr:0
UVM_INFO apb_coverage.svh(86) @ 1360: uvm_test_top.e.cov_gp [COVERAGE] Got transaction for coverage
UVM_INFO apb_scoreboard.svh(30) @ 1360: uvm_test_top.e.sco [SCO] [SCO WRITE] Addr:20 data:73752839 golden_data:73752839
UVM_INFO apb_driver.svh(56) @ 1375: uvm_test_top.e.a.drv [DRV] mode:write addr:3f wdata:b8285dd1 rdata:x pslverr:x
UVM_INFO apb_monitor.svh(37) @ 1380: uvm_test_top.e.a.mon [MON] [WRITE] Data:b8285dd1, Addr:3f, slverr:0
UVM_INFO apb_coverage.svh(86) @ 1380: uvm_test_top.e.cov_gp [COVERAGE] Got transaction for coverage
UVM_INFO apb_scoreboard.svh(30) @ 1380: uvm_test_top.e.sco [SCO] [SCO WRITE] Addr:3f data:b8285dd1 golden_data:b8285dd1
UVM_INFO apb_driver.svh(56) @ 1395: uvm_test_top.e.a.drv [DRV] mode:write addr:21 wdata:d01d2c1e rdata:x pslverr:x
UVM_INFO apb_monitor.svh(37) @ 1400: uvm_test_top.e.a.mon [MON] [WRITE] Data:d01d2c1e, Addr:21, slverr:0
UVM_INFO apb_coverage.svh(86) @ 1400: uvm_test_top.e.cov_gp [COVERAGE] Got transaction for coverage
UVM_INFO apb_scoreboard.svh(30) @ 1400: uvm_test_top.e.sco [SCO] [SCO WRITE] Addr:21 data:d01d2c1e golden_data:d01d2c1e
UVM_INFO apb_driver.svh(56) @ 1415: uvm_test_top.e.a.drv [DRV] mode:write addr:42 wdata:9786fba0 rdata:x pslverr:x
UVM_INFO apb_monitor.svh(37) @ 1420: uvm_test_top.e.a.mon [MON] [WRITE] Data:9786fba0, Addr:42, slverr:0
UVM_INFO apb_coverage.svh(86) @ 1420: uvm_test_top.e.cov_gp [COVERAGE] Got transaction for coverage
UVM_INFO apb_scoreboard.svh(30) @ 1420: uvm_test_top.e.sco [SCO] [SCO WRITE] Addr:42 data:9786fba0 golden_data:9786fba0
UVM_INFO apb_driver.svh(56) @ 1435: uvm_test_top.e.a.drv [DRV] mode:write addr:22 wdata:3a437791 rdata:x pslverr:x
UVM_INFO apb_monitor.svh(37) @ 1440: uvm_test_top.e.a.mon [MON] [WRITE] Data:3a437791, Addr:22, slverr:0
UVM_INFO apb_coverage.svh(86) @ 1440: uvm_test_top.e.cov_gp [COVERAGE] Got transaction for coverage
UVM_INFO apb_scoreboard.svh(30) @ 1440: uvm_test_top.e.sco [SCO] [SCO WRITE] Addr:22 data:3a437791 golden_data:3a437791
UVM_INFO apb_driver.svh(56) @ 1455: uvm_test_top.e.a.drv [DRV] mode:write addr:f0bcca7 wdata:f64cfe90 rdata:x pslverr:x
UVM_INFO apb_monitor.svh(37) @ 1460: uvm_test_top.e.a.mon [MON] [WRITE] Data:f64cfe90, Addr:f0bcca7, slverr:1
UVM_INFO apb_coverage.svh(86) @ 1460: uvm_test_top.e.cov_gp [COVERAGE] Got transaction for coverage
UVM_INFO apb_scoreboard.svh(25) @ 1460: uvm_test_top.e.sco [SCO] Slave error detectod-inavlid write transaction
UVM_INFO apb_driver.svh(56) @ 1475: uvm_test_top.e.a.drv [DRV] mode:write addr:23 wdata:5e139493 rdata:x pslverr:x
UVM_INFO apb_monitor.svh(37) @ 1480: uvm_test_top.e.a.mon [MON] [WRITE] Data:5e139493, Addr:23, slverr:0
UVM_INFO apb_coverage.svh(86) @ 1480: uvm_test_top.e.cov_gp [COVERAGE] Got transaction for coverage
UVM_INFO apb_scoreboard.svh(30) @ 1480: uvm_test_top.e.sco [SCO] [SCO WRITE] Addr:23 data:5e139493 golden_data:5e139493
UVM_INFO apb_driver.svh(56) @ 1495: uvm_test_top.e.a.drv [DRV] mode:write addr:40b88e4f wdata:f6b1f2cb rdata:x pslverr:x
UVM_INFO apb_monitor.svh(37) @ 1500: uvm_test_top.e.a.mon [MON] [WRITE] Data:f6b1f2cb, Addr:40b88e4f, slverr:1
UVM_INFO apb_coverage.svh(86) @ 1500: uvm_test_top.e.cov_gp [COVERAGE] Got transaction for coverage
UVM_INFO apb_scoreboard.svh(25) @ 1500: uvm_test_top.e.sco [SCO] Slave error detectod-inavlid write transaction
UVM_INFO apb_driver.svh(56) @ 1515: uvm_test_top.e.a.drv [DRV] mode:write addr:24 wdata:72b6e17a rdata:x pslverr:x
UVM_INFO apb_monitor.svh(37) @ 1520: uvm_test_top.e.a.mon [MON] [WRITE] Data:72b6e17a, Addr:24, slverr:0
UVM_INFO apb_coverage.svh(86) @ 1520: uvm_test_top.e.cov_gp [COVERAGE] Got transaction for coverage
UVM_INFO apb_scoreboard.svh(30) @ 1520: uvm_test_top.e.sco [SCO] [SCO WRITE] Addr:24 data:72b6e17a golden_data:72b6e17a
UVM_INFO apb_driver.svh(56) @ 1535: uvm_test_top.e.a.drv [DRV] mode:write addr:0 wdata:7818c41f rdata:x pslverr:x
UVM_INFO apb_monitor.svh(37) @ 1540: uvm_test_top.e.a.mon [MON] [WRITE] Data:7818c41f, Addr:0, slverr:0
UVM_INFO apb_coverage.svh(86) @ 1540: uvm_test_top.e.cov_gp [COVERAGE] Got transaction for coverage
UVM_INFO apb_scoreboard.svh(30) @ 1540: uvm_test_top.e.sco [SCO] [SCO WRITE] Addr:0 data:7818c41f golden_data:7818c41f
UVM_INFO apb_driver.svh(56) @ 1555: uvm_test_top.e.a.drv [DRV] mode:write addr:25 wdata:ab6e9062 rdata:x pslverr:x
UVM_INFO apb_monitor.svh(37) @ 1560: uvm_test_top.e.a.mon [MON] [WRITE] Data:ab6e9062, Addr:25, slverr:0
UVM_INFO apb_coverage.svh(86) @ 1560: uvm_test_top.e.cov_gp [COVERAGE] Got transaction for coverage
UVM_INFO apb_scoreboard.svh(30) @ 1560: uvm_test_top.e.sco [SCO] [SCO WRITE] Addr:25 data:ab6e9062 golden_data:ab6e9062
UVM_INFO apb_driver.svh(56) @ 1575: uvm_test_top.e.a.drv [DRV] mode:write addr:25 wdata:4fd33e8c rdata:x pslverr:x
UVM_INFO apb_monitor.svh(37) @ 1580: uvm_test_top.e.a.mon [MON] [WRITE] Data:4fd33e8c, Addr:25, slverr:0
UVM_INFO apb_coverage.svh(86) @ 1580: uvm_test_top.e.cov_gp [COVERAGE] Got transaction for coverage
UVM_INFO apb_scoreboard.svh(30) @ 1580: uvm_test_top.e.sco [SCO] [SCO WRITE] Addr:25 data:4fd33e8c golden_data:4fd33e8c
UVM_INFO apb_driver.svh(56) @ 1595: uvm_test_top.e.a.drv [DRV] mode:write addr:26 wdata:406feb59 rdata:x pslverr:x
UVM_INFO apb_monitor.svh(37) @ 1600: uvm_test_top.e.a.mon [MON] [WRITE] Data:406feb59, Addr:26, slverr:0
UVM_INFO apb_coverage.svh(86) @ 1600: uvm_test_top.e.cov_gp [COVERAGE] Got transaction for coverage
UVM_INFO apb_scoreboard.svh(30) @ 1600: uvm_test_top.e.sco [SCO] [SCO WRITE] Addr:26 data:406feb59 golden_data:406feb59
UVM_INFO apb_driver.svh(56) @ 1615: uvm_test_top.e.a.drv [DRV] mode:write addr:67 wdata:3edac93f rdata:x pslverr:x
UVM_INFO apb_monitor.svh(37) @ 1620: uvm_test_top.e.a.mon [MON] [WRITE] Data:3edac93f, Addr:67, slverr:0
UVM_INFO apb_coverage.svh(86) @ 1620: uvm_test_top.e.cov_gp [COVERAGE] Got transaction for coverage
UVM_INFO apb_scoreboard.svh(30) @ 1620: uvm_test_top.e.sco [SCO] [SCO WRITE] Addr:67 data:3edac93f golden_data:3edac93f
UVM_INFO apb_driver.svh(56) @ 1635: uvm_test_top.e.a.drv [DRV] mode:write addr:27 wdata:eb7e0948 rdata:x pslverr:x
UVM_INFO apb_monitor.svh(37) @ 1640: uvm_test_top.e.a.mon [MON] [WRITE] Data:eb7e0948, Addr:27, slverr:0
UVM_INFO apb_coverage.svh(86) @ 1640: uvm_test_top.e.cov_gp [COVERAGE] Got transaction for coverage
UVM_INFO apb_scoreboard.svh(30) @ 1640: uvm_test_top.e.sco [SCO] [SCO WRITE] Addr:27 data:eb7e0948 golden_data:eb7e0948
UVM_INFO apb_driver.svh(56) @ 1655: uvm_test_top.e.a.drv [DRV] mode:write addr:20 wdata:60af5620 rdata:x pslverr:x
UVM_INFO apb_monitor.svh(37) @ 1660: uvm_test_top.e.a.mon [MON] [WRITE] Data:60af5620, Addr:20, slverr:0
UVM_INFO apb_coverage.svh(86) @ 1660: uvm_test_top.e.cov_gp [COVERAGE] Got transaction for coverage
UVM_INFO apb_scoreboard.svh(30) @ 1660: uvm_test_top.e.sco [SCO] [SCO WRITE] Addr:20 data:60af5620 golden_data:60af5620
UVM_INFO apb_driver.svh(56) @ 1675: uvm_test_top.e.a.drv [DRV] mode:write addr:28 wdata:7449dfa1 rdata:x pslverr:x
UVM_INFO apb_monitor.svh(37) @ 1680: uvm_test_top.e.a.mon [MON] [WRITE] Data:7449dfa1, Addr:28, slverr:0
UVM_INFO apb_coverage.svh(86) @ 1680: uvm_test_top.e.cov_gp [COVERAGE] Got transaction for coverage
UVM_INFO apb_scoreboard.svh(30) @ 1680: uvm_test_top.e.sco [SCO] [SCO WRITE] Addr:28 data:7449dfa1 golden_data:7449dfa1
UVM_INFO apb_driver.svh(56) @ 1695: uvm_test_top.e.a.drv [DRV] mode:write addr:1a wdata:6b9918e4 rdata:x pslverr:x
UVM_INFO apb_monitor.svh(37) @ 1700: uvm_test_top.e.a.mon [MON] [WRITE] Data:6b9918e4, Addr:1a, slverr:0
UVM_INFO apb_coverage.svh(86) @ 1700: uvm_test_top.e.cov_gp [COVERAGE] Got transaction for coverage
UVM_INFO apb_scoreboard.svh(30) @ 1700: uvm_test_top.e.sco [SCO] [SCO WRITE] Addr:1a data:6b9918e4 golden_data:6b9918e4
UVM_INFO apb_driver.svh(56) @ 1715: uvm_test_top.e.a.drv [DRV] mode:write addr:29 wdata:a88b5ccc rdata:x pslverr:x
UVM_INFO apb_monitor.svh(37) @ 1720: uvm_test_top.e.a.mon [MON] [WRITE] Data:a88b5ccc, Addr:29, slverr:0
UVM_INFO apb_coverage.svh(86) @ 1720: uvm_test_top.e.cov_gp [COVERAGE] Got transaction for coverage
UVM_INFO apb_scoreboard.svh(30) @ 1720: uvm_test_top.e.sco [SCO] [SCO WRITE] Addr:29 data:a88b5ccc golden_data:a88b5ccc
UVM_INFO apb_driver.svh(56) @ 1735: uvm_test_top.e.a.drv [DRV] mode:write addr:48 wdata:d7748c42 rdata:x pslverr:x
UVM_INFO apb_monitor.svh(37) @ 1740: uvm_test_top.e.a.mon [MON] [WRITE] Data:d7748c42, Addr:48, slverr:0
UVM_INFO apb_coverage.svh(86) @ 1740: uvm_test_top.e.cov_gp [COVERAGE] Got transaction for coverage
UVM_INFO apb_scoreboard.svh(30) @ 1740: uvm_test_top.e.sco [SCO] [SCO WRITE] Addr:48 data:d7748c42 golden_data:d7748c42
UVM_INFO apb_driver.svh(56) @ 1755: uvm_test_top.e.a.drv [DRV] mode:write addr:2a wdata:dbddf751 rdata:x pslverr:x
UVM_INFO apb_monitor.svh(37) @ 1760: uvm_test_top.e.a.mon [MON] [WRITE] Data:dbddf751, Addr:2a, slverr:0
UVM_INFO apb_coverage.svh(86) @ 1760: uvm_test_top.e.cov_gp [COVERAGE] Got transaction for coverage
UVM_INFO apb_scoreboard.svh(30) @ 1760: uvm_test_top.e.sco [SCO] [SCO WRITE] Addr:2a data:dbddf751 golden_data:dbddf751
UVM_INFO apb_driver.svh(56) @ 1775: uvm_test_top.e.a.drv [DRV] mode:write addr:2c wdata:bed7f393 rdata:x pslverr:x
UVM_INFO apb_monitor.svh(37) @ 1780: uvm_test_top.e.a.mon [MON] [WRITE] Data:bed7f393, Addr:2c, slverr:0
UVM_INFO apb_coverage.svh(86) @ 1780: uvm_test_top.e.cov_gp [COVERAGE] Got transaction for coverage
UVM_INFO apb_scoreboard.svh(30) @ 1780: uvm_test_top.e.sco [SCO] [SCO WRITE] Addr:2c data:bed7f393 golden_data:bed7f393
UVM_INFO apb_driver.svh(56) @ 1795: uvm_test_top.e.a.drv [DRV] mode:write addr:2b wdata:cb5cddc3 rdata:x pslverr:x
UVM_INFO apb_monitor.svh(37) @ 1800: uvm_test_top.e.a.mon [MON] [WRITE] Data:cb5cddc3, Addr:2b, slverr:0
UVM_INFO apb_coverage.svh(86) @ 1800: uvm_test_top.e.cov_gp [COVERAGE] Got transaction for coverage
UVM_INFO apb_scoreboard.svh(30) @ 1800: uvm_test_top.e.sco [SCO] [SCO WRITE] Addr:2b data:cb5cddc3 golden_data:cb5cddc3
UVM_INFO apb_driver.svh(56) @ 1815: uvm_test_top.e.a.drv [DRV] mode:write addr:4b wdata:2a3836d6 rdata:x pslverr:x
UVM_INFO apb_monitor.svh(37) @ 1820: uvm_test_top.e.a.mon [MON] [WRITE] Data:2a3836d6, Addr:4b, slverr:0
UVM_INFO apb_coverage.svh(86) @ 1820: uvm_test_top.e.cov_gp [COVERAGE] Got transaction for coverage
UVM_INFO apb_scoreboard.svh(30) @ 1820: uvm_test_top.e.sco [SCO] [SCO WRITE] Addr:4b data:2a3836d6 golden_data:2a3836d6
UVM_INFO apb_driver.svh(56) @ 1835: uvm_test_top.e.a.drv [DRV] mode:write addr:2c wdata:80feb371 rdata:x pslverr:x
UVM_INFO apb_monitor.svh(37) @ 1840: uvm_test_top.e.a.mon [MON] [WRITE] Data:80feb371, Addr:2c, slverr:0
UVM_INFO apb_coverage.svh(86) @ 1840: uvm_test_top.e.cov_gp [COVERAGE] Got transaction for coverage
UVM_INFO apb_scoreboard.svh(30) @ 1840: uvm_test_top.e.sco [SCO] [SCO WRITE] Addr:2c data:80feb371 golden_data:80feb371
UVM_INFO apb_driver.svh(56) @ 1855: uvm_test_top.e.a.drv [DRV] mode:write addr:15 wdata:a69818fb rdata:x pslverr:x
UVM_INFO apb_monitor.svh(37) @ 1860: uvm_test_top.e.a.mon [MON] [WRITE] Data:a69818fb, Addr:15, slverr:0
UVM_INFO apb_coverage.svh(86) @ 1860: uvm_test_top.e.cov_gp [COVERAGE] Got transaction for coverage
UVM_INFO apb_scoreboard.svh(30) @ 1860: uvm_test_top.e.sco [SCO] [SCO WRITE] Addr:15 data:a69818fb golden_data:a69818fb
UVM_INFO apb_driver.svh(56) @ 1875: uvm_test_top.e.a.drv [DRV] mode:write addr:2d wdata:92b285ce rdata:x pslverr:x
UVM_INFO apb_monitor.svh(37) @ 1880: uvm_test_top.e.a.mon [MON] [WRITE] Data:92b285ce, Addr:2d, slverr:0
UVM_INFO apb_coverage.svh(86) @ 1880: uvm_test_top.e.cov_gp [COVERAGE] Got transaction for coverage
UVM_INFO apb_scoreboard.svh(30) @ 1880: uvm_test_top.e.sco [SCO] [SCO WRITE] Addr:2d data:92b285ce golden_data:92b285ce
UVM_INFO apb_driver.svh(56) @ 1895: uvm_test_top.e.a.drv [DRV] mode:write addr:36 wdata:ab9ee8cc rdata:x pslverr:x
UVM_INFO apb_monitor.svh(37) @ 1900: uvm_test_top.e.a.mon [MON] [WRITE] Data:ab9ee8cc, Addr:36, slverr:0
UVM_INFO apb_coverage.svh(86) @ 1900: uvm_test_top.e.cov_gp [COVERAGE] Got transaction for coverage
UVM_INFO apb_scoreboard.svh(30) @ 1900: uvm_test_top.e.sco [SCO] [SCO WRITE] Addr:36 data:ab9ee8cc golden_data:ab9ee8cc
UVM_INFO apb_driver.svh(56) @ 1915: uvm_test_top.e.a.drv [DRV] mode:write addr:2e wdata:d93c669a rdata:x pslverr:x
UVM_INFO apb_monitor.svh(37) @ 1920: uvm_test_top.e.a.mon [MON] [WRITE] Data:d93c669a, Addr:2e, slverr:0
UVM_INFO apb_coverage.svh(86) @ 1920: uvm_test_top.e.cov_gp [COVERAGE] Got transaction for coverage
UVM_INFO apb_scoreboard.svh(30) @ 1920: uvm_test_top.e.sco [SCO] [SCO WRITE] Addr:2e data:d93c669a golden_data:d93c669a
UVM_INFO apb_driver.svh(56) @ 1935: uvm_test_top.e.a.drv [DRV] mode:write addr:bd778b32 wdata:e2a28b1 rdata:x pslverr:x
UVM_INFO apb_monitor.svh(37) @ 1940: uvm_test_top.e.a.mon [MON] [WRITE] Data:e2a28b1, Addr:bd778b32, slverr:1
UVM_INFO apb_coverage.svh(86) @ 1940: uvm_test_top.e.cov_gp [COVERAGE] Got transaction for coverage
UVM_INFO apb_scoreboard.svh(25) @ 1940: uvm_test_top.e.sco [SCO] Slave error detectod-inavlid write transaction
UVM_INFO apb_driver.svh(56) @ 1955: uvm_test_top.e.a.drv [DRV] mode:write addr:2f wdata:7acdd6d8 rdata:x pslverr:x
UVM_INFO apb_monitor.svh(37) @ 1960: uvm_test_top.e.a.mon [MON] [WRITE] Data:7acdd6d8, Addr:2f, slverr:0
UVM_INFO apb_coverage.svh(86) @ 1960: uvm_test_top.e.cov_gp [COVERAGE] Got transaction for coverage
UVM_INFO apb_scoreboard.svh(30) @ 1960: uvm_test_top.e.sco [SCO] [SCO WRITE] Addr:2f data:7acdd6d8 golden_data:7acdd6d8
UVM_INFO apb_driver.svh(56) @ 1975: uvm_test_top.e.a.drv [DRV] mode:write addr:5b wdata:8ccecd25 rdata:x pslverr:x
UVM_INFO apb_monitor.svh(37) @ 1980: uvm_test_top.e.a.mon [MON] [WRITE] Data:8ccecd25, Addr:5b, slverr:0
UVM_INFO apb_coverage.svh(86) @ 1980: uvm_test_top.e.cov_gp [COVERAGE] Got transaction for coverage
UVM_INFO apb_scoreboard.svh(30) @ 1980: uvm_test_top.e.sco [SCO] [SCO WRITE] Addr:5b data:8ccecd25 golden_data:8ccecd25
UVM_INFO apb_driver.svh(56) @ 1995: uvm_test_top.e.a.drv [DRV] mode:write addr:30 wdata:e563ee6e rdata:x pslverr:x
UVM_INFO apb_monitor.svh(37) @ 2000: uvm_test_top.e.a.mon [MON] [WRITE] Data:e563ee6e, Addr:30, slverr:0
UVM_INFO apb_coverage.svh(86) @ 2000: uvm_test_top.e.cov_gp [COVERAGE] Got transaction for coverage
UVM_INFO apb_scoreboard.svh(30) @ 2000: uvm_test_top.e.sco [SCO] [SCO WRITE] Addr:30 data:e563ee6e golden_data:e563ee6e
UVM_INFO apb_driver.svh(56) @ 2015: uvm_test_top.e.a.drv [DRV] mode:write addr:70 wdata:2f0fd34b rdata:x pslverr:x
UVM_INFO apb_monitor.svh(37) @ 2020: uvm_test_top.e.a.mon [MON] [WRITE] Data:2f0fd34b, Addr:70, slverr:0
UVM_INFO apb_coverage.svh(86) @ 2020: uvm_test_top.e.cov_gp [COVERAGE] Got transaction for coverage
UVM_INFO apb_scoreboard.svh(30) @ 2020: uvm_test_top.e.sco [SCO] [SCO WRITE] Addr:70 data:2f0fd34b golden_data:2f0fd34b
UVM_INFO apb_driver.svh(56) @ 2035: uvm_test_top.e.a.drv [DRV] mode:write addr:31 wdata:14e4ec9a rdata:x pslverr:x
UVM_INFO apb_monitor.svh(37) @ 2040: uvm_test_top.e.a.mon [MON] [WRITE] Data:14e4ec9a, Addr:31, slverr:0
UVM_INFO apb_coverage.svh(86) @ 2040: uvm_test_top.e.cov_gp [COVERAGE] Got transaction for coverage
UVM_INFO apb_scoreboard.svh(30) @ 2040: uvm_test_top.e.sco [SCO] [SCO WRITE] Addr:31 data:14e4ec9a golden_data:14e4ec9a
UVM_INFO apb_driver.svh(56) @ 2055: uvm_test_top.e.a.drv [DRV] mode:write addr:35 wdata:d4ccc40e rdata:x pslverr:x
UVM_INFO apb_monitor.svh(37) @ 2060: uvm_test_top.e.a.mon [MON] [WRITE] Data:d4ccc40e, Addr:35, slverr:0
UVM_INFO apb_coverage.svh(86) @ 2060: uvm_test_top.e.cov_gp [COVERAGE] Got transaction for coverage
UVM_INFO apb_scoreboard.svh(30) @ 2060: uvm_test_top.e.sco [SCO] [SCO WRITE] Addr:35 data:d4ccc40e golden_data:d4ccc40e
UVM_INFO apb_driver.svh(56) @ 2075: uvm_test_top.e.a.drv [DRV] mode:write addr:32 wdata:40fa9d1a rdata:x pslverr:x
UVM_INFO apb_monitor.svh(37) @ 2080: uvm_test_top.e.a.mon [MON] [WRITE] Data:40fa9d1a, Addr:32, slverr:0
UVM_INFO apb_coverage.svh(86) @ 2080: uvm_test_top.e.cov_gp [COVERAGE] Got transaction for coverage
UVM_INFO apb_scoreboard.svh(30) @ 2080: uvm_test_top.e.sco [SCO] [SCO WRITE] Addr:32 data:40fa9d1a golden_data:40fa9d1a
UVM_INFO apb_driver.svh(56) @ 2095: uvm_test_top.e.a.drv [DRV] mode:write addr:5a wdata:b5de9c71 rdata:x pslverr:x
UVM_INFO apb_monitor.svh(37) @ 2100: uvm_test_top.e.a.mon [MON] [WRITE] Data:b5de9c71, Addr:5a, slverr:0
UVM_INFO apb_coverage.svh(86) @ 2100: uvm_test_top.e.cov_gp [COVERAGE] Got transaction for coverage
UVM_INFO apb_scoreboard.svh(30) @ 2100: uvm_test_top.e.sco [SCO] [SCO WRITE] Addr:5a data:b5de9c71 golden_data:b5de9c71
UVM_INFO apb_driver.svh(56) @ 2115: uvm_test_top.e.a.drv [DRV] mode:write addr:33 wdata:ceafbe18 rdata:x pslverr:x
UVM_INFO apb_monitor.svh(37) @ 2120: uvm_test_top.e.a.mon [MON] [WRITE] Data:ceafbe18, Addr:33, slverr:0
UVM_INFO apb_coverage.svh(86) @ 2120: uvm_test_top.e.cov_gp [COVERAGE] Got transaction for coverage
UVM_INFO apb_scoreboard.svh(30) @ 2120: uvm_test_top.e.sco [SCO] [SCO WRITE] Addr:33 data:ceafbe18 golden_data:ceafbe18
UVM_INFO apb_driver.svh(56) @ 2135: uvm_test_top.e.a.drv [DRV] mode:write addr:34 wdata:9082289d rdata:x pslverr:x
UVM_INFO apb_monitor.svh(37) @ 2140: uvm_test_top.e.a.mon [MON] [WRITE] Data:9082289d, Addr:34, slverr:0
UVM_INFO apb_coverage.svh(86) @ 2140: uvm_test_top.e.cov_gp [COVERAGE] Got transaction for coverage
UVM_INFO apb_scoreboard.svh(30) @ 2140: uvm_test_top.e.sco [SCO] [SCO WRITE] Addr:34 data:9082289d golden_data:9082289d
UVM_INFO apb_driver.svh(56) @ 2155: uvm_test_top.e.a.drv [DRV] mode:write addr:34 wdata:21c752d9 rdata:x pslverr:x
UVM_INFO apb_monitor.svh(37) @ 2160: uvm_test_top.e.a.mon [MON] [WRITE] Data:21c752d9, Addr:34, slverr:0
UVM_INFO apb_coverage.svh(86) @ 2160: uvm_test_top.e.cov_gp [COVERAGE] Got transaction for coverage
UVM_INFO apb_scoreboard.svh(30) @ 2160: uvm_test_top.e.sco [SCO] [SCO WRITE] Addr:34 data:21c752d9 golden_data:21c752d9
UVM_INFO apb_driver.svh(56) @ 2175: uvm_test_top.e.a.drv [DRV] mode:write addr:362ffc78 wdata:3e6ecc6f rdata:x pslverr:x
UVM_INFO apb_monitor.svh(37) @ 2180: uvm_test_top.e.a.mon [MON] [WRITE] Data:3e6ecc6f, Addr:362ffc78, slverr:1
UVM_INFO apb_coverage.svh(86) @ 2180: uvm_test_top.e.cov_gp [COVERAGE] Got transaction for coverage
UVM_INFO apb_scoreboard.svh(25) @ 2180: uvm_test_top.e.sco [SCO] Slave error detectod-inavlid write transaction
UVM_INFO apb_driver.svh(56) @ 2195: uvm_test_top.e.a.drv [DRV] mode:write addr:35 wdata:a9df8f24 rdata:x pslverr:x
UVM_INFO apb_monitor.svh(37) @ 2200: uvm_test_top.e.a.mon [MON] [WRITE] Data:a9df8f24, Addr:35, slverr:0
UVM_INFO apb_coverage.svh(86) @ 2200: uvm_test_top.e.cov_gp [COVERAGE] Got transaction for coverage
UVM_INFO apb_scoreboard.svh(30) @ 2200: uvm_test_top.e.sco [SCO] [SCO WRITE] Addr:35 data:a9df8f24 golden_data:a9df8f24
UVM_INFO apb_driver.svh(56) @ 2215: uvm_test_top.e.a.drv [DRV] mode:write addr:5d wdata:e57e51a6 rdata:x pslverr:x
UVM_INFO apb_monitor.svh(37) @ 2220: uvm_test_top.e.a.mon [MON] [WRITE] Data:e57e51a6, Addr:5d, slverr:0
UVM_INFO apb_coverage.svh(86) @ 2220: uvm_test_top.e.cov_gp [COVERAGE] Got transaction for coverage
UVM_INFO apb_scoreboard.svh(30) @ 2220: uvm_test_top.e.sco [SCO] [SCO WRITE] Addr:5d data:e57e51a6 golden_data:e57e51a6
UVM_INFO apb_driver.svh(56) @ 2235: uvm_test_top.e.a.drv [DRV] mode:write addr:36 wdata:4748c772 rdata:x pslverr:x
UVM_INFO apb_monitor.svh(37) @ 2240: uvm_test_top.e.a.mon [MON] [WRITE] Data:4748c772, Addr:36, slverr:0
UVM_INFO apb_coverage.svh(86) @ 2240: uvm_test_top.e.cov_gp [COVERAGE] Got transaction for coverage
UVM_INFO apb_scoreboard.svh(30) @ 2240: uvm_test_top.e.sco [SCO] [SCO WRITE] Addr:36 data:4748c772 golden_data:4748c772
UVM_INFO apb_driver.svh(56) @ 2255: uvm_test_top.e.a.drv [DRV] mode:write addr:7b wdata:38231eac rdata:x pslverr:x
UVM_INFO apb_monitor.svh(37) @ 2260: uvm_test_top.e.a.mon [MON] [WRITE] Data:38231eac, Addr:7b, slverr:0
UVM_INFO apb_coverage.svh(86) @ 2260: uvm_test_top.e.cov_gp [COVERAGE] Got transaction for coverage
UVM_INFO apb_scoreboard.svh(30) @ 2260: uvm_test_top.e.sco [SCO] [SCO WRITE] Addr:7b data:38231eac golden_data:38231eac
UVM_INFO apb_driver.svh(56) @ 2275: uvm_test_top.e.a.drv [DRV] mode:write addr:37 wdata:e3a291d9 rdata:x pslverr:x
UVM_INFO apb_monitor.svh(37) @ 2280: uvm_test_top.e.a.mon [MON] [WRITE] Data:e3a291d9, Addr:37, slverr:0
UVM_INFO apb_coverage.svh(86) @ 2280: uvm_test_top.e.cov_gp [COVERAGE] Got transaction for coverage
UVM_INFO apb_scoreboard.svh(30) @ 2280: uvm_test_top.e.sco [SCO] [SCO WRITE] Addr:37 data:e3a291d9 golden_data:e3a291d9
UVM_INFO apb_driver.svh(56) @ 2295: uvm_test_top.e.a.drv [DRV] mode:write addr:3c wdata:1e11b2a6 rdata:x pslverr:x
UVM_INFO apb_monitor.svh(37) @ 2300: uvm_test_top.e.a.mon [MON] [WRITE] Data:1e11b2a6, Addr:3c, slverr:0
UVM_INFO apb_coverage.svh(86) @ 2300: uvm_test_top.e.cov_gp [COVERAGE] Got transaction for coverage
UVM_INFO apb_scoreboard.svh(30) @ 2300: uvm_test_top.e.sco [SCO] [SCO WRITE] Addr:3c data:1e11b2a6 golden_data:1e11b2a6
UVM_INFO apb_driver.svh(56) @ 2315: uvm_test_top.e.a.drv [DRV] mode:write addr:38 wdata:da3903b6 rdata:x pslverr:x
UVM_INFO apb_monitor.svh(37) @ 2320: uvm_test_top.e.a.mon [MON] [WRITE] Data:da3903b6, Addr:38, slverr:0
UVM_INFO apb_coverage.svh(86) @ 2320: uvm_test_top.e.cov_gp [COVERAGE] Got transaction for coverage
UVM_INFO apb_scoreboard.svh(30) @ 2320: uvm_test_top.e.sco [SCO] [SCO WRITE] Addr:38 data:da3903b6 golden_data:da3903b6
UVM_INFO apb_driver.svh(56) @ 2335: uvm_test_top.e.a.drv [DRV] mode:write addr:5e wdata:7628caac rdata:x pslverr:x
UVM_INFO apb_monitor.svh(37) @ 2340: uvm_test_top.e.a.mon [MON] [WRITE] Data:7628caac, Addr:5e, slverr:0
UVM_INFO apb_coverage.svh(86) @ 2340: uvm_test_top.e.cov_gp [COVERAGE] Got transaction for coverage
UVM_INFO apb_scoreboard.svh(30) @ 2340: uvm_test_top.e.sco [SCO] [SCO WRITE] Addr:5e data:7628caac golden_data:7628caac
UVM_INFO apb_driver.svh(56) @ 2355: uvm_test_top.e.a.drv [DRV] mode:write addr:39 wdata:8c21b81f rdata:x pslverr:x
UVM_INFO apb_monitor.svh(37) @ 2360: uvm_test_top.e.a.mon [MON] [WRITE] Data:8c21b81f, Addr:39, slverr:0
UVM_INFO apb_coverage.svh(86) @ 2360: uvm_test_top.e.cov_gp [COVERAGE] Got transaction for coverage
UVM_INFO apb_scoreboard.svh(30) @ 2360: uvm_test_top.e.sco [SCO] [SCO WRITE] Addr:39 data:8c21b81f golden_data:8c21b81f
UVM_INFO apb_driver.svh(56) @ 2375: uvm_test_top.e.a.drv [DRV] mode:write addr:48 wdata:bc8e3233 rdata:x pslverr:x
UVM_INFO apb_monitor.svh(37) @ 2380: uvm_test_top.e.a.mon [MON] [WRITE] Data:bc8e3233, Addr:48, slverr:0
UVM_INFO apb_coverage.svh(86) @ 2380: uvm_test_top.e.cov_gp [COVERAGE] Got transaction for coverage
UVM_INFO apb_scoreboard.svh(30) @ 2380: uvm_test_top.e.sco [SCO] [SCO WRITE] Addr:48 data:bc8e3233 golden_data:bc8e3233
UVM_INFO apb_driver.svh(56) @ 2395: uvm_test_top.e.a.drv [DRV] mode:write addr:3a wdata:3c120b05 rdata:x pslverr:x
UVM_INFO apb_monitor.svh(37) @ 2400: uvm_test_top.e.a.mon [MON] [WRITE] Data:3c120b05, Addr:3a, slverr:0
UVM_INFO apb_coverage.svh(86) @ 2400: uvm_test_top.e.cov_gp [COVERAGE] Got transaction for coverage
UVM_INFO apb_scoreboard.svh(30) @ 2400: uvm_test_top.e.sco [SCO] [SCO WRITE] Addr:3a data:3c120b05 golden_data:3c120b05
UVM_INFO apb_driver.svh(56) @ 2415: uvm_test_top.e.a.drv [DRV] mode:write addr:2f483b61 wdata:5b9625f rdata:x pslverr:x
UVM_INFO apb_monitor.svh(37) @ 2420: uvm_test_top.e.a.mon [MON] [WRITE] Data:5b9625f, Addr:2f483b61, slverr:1
UVM_INFO apb_coverage.svh(86) @ 2420: uvm_test_top.e.cov_gp [COVERAGE] Got transaction for coverage
UVM_INFO apb_scoreboard.svh(25) @ 2420: uvm_test_top.e.sco [SCO] Slave error detectod-inavlid write transaction
UVM_INFO apb_driver.svh(56) @ 2435: uvm_test_top.e.a.drv [DRV] mode:write addr:3b wdata:e04b52b rdata:x pslverr:x
UVM_INFO apb_monitor.svh(37) @ 2440: uvm_test_top.e.a.mon [MON] [WRITE] Data:e04b52b, Addr:3b, slverr:0
UVM_INFO apb_coverage.svh(86) @ 2440: uvm_test_top.e.cov_gp [COVERAGE] Got transaction for coverage
UVM_INFO apb_scoreboard.svh(30) @ 2440: uvm_test_top.e.sco [SCO] [SCO WRITE] Addr:3b data:e04b52b golden_data:e04b52b
UVM_INFO apb_driver.svh(56) @ 2455: uvm_test_top.e.a.drv [DRV] mode:write addr:7 wdata:5ccc1898 rdata:x pslverr:x
UVM_INFO apb_monitor.svh(37) @ 2460: uvm_test_top.e.a.mon [MON] [WRITE] Data:5ccc1898, Addr:7, slverr:0
UVM_INFO apb_coverage.svh(86) @ 2460: uvm_test_top.e.cov_gp [COVERAGE] Got transaction for coverage
UVM_INFO apb_scoreboard.svh(30) @ 2460: uvm_test_top.e.sco [SCO] [SCO WRITE] Addr:7 data:5ccc1898 golden_data:5ccc1898
UVM_INFO apb_driver.svh(56) @ 2475: uvm_test_top.e.a.drv [DRV] mode:write addr:3c wdata:c688b4c9 rdata:x pslverr:x
UVM_INFO apb_monitor.svh(37) @ 2480: uvm_test_top.e.a.mon [MON] [WRITE] Data:c688b4c9, Addr:3c, slverr:0
UVM_INFO apb_coverage.svh(86) @ 2480: uvm_test_top.e.cov_gp [COVERAGE] Got transaction for coverage
UVM_INFO apb_scoreboard.svh(30) @ 2480: uvm_test_top.e.sco [SCO] [SCO WRITE] Addr:3c data:c688b4c9 golden_data:c688b4c9
UVM_INFO apb_driver.svh(56) @ 2495: uvm_test_top.e.a.drv [DRV] mode:write addr:2e wdata:543912ee rdata:x pslverr:x
UVM_INFO apb_monitor.svh(37) @ 2500: uvm_test_top.e.a.mon [MON] [WRITE] Data:543912ee, Addr:2e, slverr:0
UVM_INFO apb_coverage.svh(86) @ 2500: uvm_test_top.e.cov_gp [COVERAGE] Got transaction for coverage
UVM_INFO apb_scoreboard.svh(30) @ 2500: uvm_test_top.e.sco [SCO] [SCO WRITE] Addr:2e data:543912ee golden_data:543912ee
UVM_INFO apb_driver.svh(56) @ 2515: uvm_test_top.e.a.drv [DRV] mode:write addr:3d wdata:a5eb2efd rdata:x pslverr:x
UVM_INFO apb_monitor.svh(37) @ 2520: uvm_test_top.e.a.mon [MON] [WRITE] Data:a5eb2efd, Addr:3d, slverr:0
UVM_INFO apb_coverage.svh(86) @ 2520: uvm_test_top.e.cov_gp [COVERAGE] Got transaction for coverage
UVM_INFO apb_scoreboard.svh(30) @ 2520: uvm_test_top.e.sco [SCO] [SCO WRITE] Addr:3d data:a5eb2efd golden_data:a5eb2efd
UVM_INFO apb_driver.svh(56) @ 2535: uvm_test_top.e.a.drv [DRV] mode:write addr:ff098668 wdata:f565db9b rdata:x pslverr:x
UVM_INFO apb_monitor.svh(37) @ 2540: uvm_test_top.e.a.mon [MON] [WRITE] Data:f565db9b, Addr:ff098668, slverr:1
UVM_INFO apb_coverage.svh(86) @ 2540: uvm_test_top.e.cov_gp [COVERAGE] Got transaction for coverage
UVM_INFO apb_scoreboard.svh(25) @ 2540: uvm_test_top.e.sco [SCO] Slave error detectod-inavlid write transaction
UVM_INFO apb_driver.svh(56) @ 2555: uvm_test_top.e.a.drv [DRV] mode:write addr:3e wdata:7b0ab5f7 rdata:x pslverr:x
UVM_INFO apb_monitor.svh(37) @ 2560: uvm_test_top.e.a.mon [MON] [WRITE] Data:7b0ab5f7, Addr:3e, slverr:0
UVM_INFO apb_coverage.svh(86) @ 2560: uvm_test_top.e.cov_gp [COVERAGE] Got transaction for coverage
UVM_INFO apb_scoreboard.svh(30) @ 2560: uvm_test_top.e.sco [SCO] [SCO WRITE] Addr:3e data:7b0ab5f7 golden_data:7b0ab5f7
UVM_INFO apb_driver.svh(56) @ 2575: uvm_test_top.e.a.drv [DRV] mode:write addr:3 wdata:909dbfdc rdata:x pslverr:x
UVM_INFO apb_monitor.svh(37) @ 2580: uvm_test_top.e.a.mon [MON] [WRITE] Data:909dbfdc, Addr:3, slverr:0
UVM_INFO apb_coverage.svh(86) @ 2580: uvm_test_top.e.cov_gp [COVERAGE] Got transaction for coverage
UVM_INFO apb_scoreboard.svh(30) @ 2580: uvm_test_top.e.sco [SCO] [SCO WRITE] Addr:3 data:909dbfdc golden_data:909dbfdc
UVM_INFO apb_driver.svh(56) @ 2595: uvm_test_top.e.a.drv [DRV] mode:write addr:3f wdata:c9f41fe3 rdata:x pslverr:x
UVM_INFO apb_monitor.svh(37) @ 2600: uvm_test_top.e.a.mon [MON] [WRITE] Data:c9f41fe3, Addr:3f, slverr:0
UVM_INFO apb_coverage.svh(86) @ 2600: uvm_test_top.e.cov_gp [COVERAGE] Got transaction for coverage
UVM_INFO apb_scoreboard.svh(30) @ 2600: uvm_test_top.e.sco [SCO] [SCO WRITE] Addr:3f data:c9f41fe3 golden_data:c9f41fe3
UVM_INFO apb_driver.svh(56) @ 2615: uvm_test_top.e.a.drv [DRV] mode:write addr:14 wdata:acb548a6 rdata:x pslverr:x
UVM_INFO apb_monitor.svh(37) @ 2620: uvm_test_top.e.a.mon [MON] [WRITE] Data:acb548a6, Addr:14, slverr:0
UVM_INFO apb_coverage.svh(86) @ 2620: uvm_test_top.e.cov_gp [COVERAGE] Got transaction for coverage
UVM_INFO apb_scoreboard.svh(30) @ 2620: uvm_test_top.e.sco [SCO] [SCO WRITE] Addr:14 data:acb548a6 golden_data:acb548a6
UVM_INFO apb_driver.svh(56) @ 2635: uvm_test_top.e.a.drv [DRV] mode:write addr:40 wdata:a244da93 rdata:x pslverr:x
UVM_INFO apb_monitor.svh(37) @ 2640: uvm_test_top.e.a.mon [MON] [WRITE] Data:a244da93, Addr:40, slverr:0
UVM_INFO apb_coverage.svh(86) @ 2640: uvm_test_top.e.cov_gp [COVERAGE] Got transaction for coverage
UVM_INFO apb_scoreboard.svh(30) @ 2640: uvm_test_top.e.sco [SCO] [SCO WRITE] Addr:40 data:a244da93 golden_data:a244da93
UVM_INFO apb_driver.svh(56) @ 2655: uvm_test_top.e.a.drv [DRV] mode:write addr:5a wdata:5aa46048 rdata:x pslverr:x
UVM_INFO apb_monitor.svh(37) @ 2660: uvm_test_top.e.a.mon [MON] [WRITE] Data:5aa46048, Addr:5a, slverr:0
UVM_INFO apb_coverage.svh(86) @ 2660: uvm_test_top.e.cov_gp [COVERAGE] Got transaction for coverage
UVM_INFO apb_scoreboard.svh(30) @ 2660: uvm_test_top.e.sco [SCO] [SCO WRITE] Addr:5a data:5aa46048 golden_data:5aa46048
UVM_INFO apb_driver.svh(56) @ 2675: uvm_test_top.e.a.drv [DRV] mode:write addr:41 wdata:813a67f3 rdata:x pslverr:x
UVM_INFO apb_monitor.svh(37) @ 2680: uvm_test_top.e.a.mon [MON] [WRITE] Data:813a67f3, Addr:41, slverr:0
UVM_INFO apb_coverage.svh(86) @ 2680: uvm_test_top.e.cov_gp [COVERAGE] Got transaction for coverage
UVM_INFO apb_scoreboard.svh(30) @ 2680: uvm_test_top.e.sco [SCO] [SCO WRITE] Addr:41 data:813a67f3 golden_data:813a67f3
UVM_INFO apb_driver.svh(56) @ 2695: uvm_test_top.e.a.drv [DRV] mode:write addr:19 wdata:f75e3b96 rdata:x pslverr:x
UVM_INFO apb_monitor.svh(37) @ 2700: uvm_test_top.e.a.mon [MON] [WRITE] Data:f75e3b96, Addr:19, slverr:0
UVM_INFO apb_coverage.svh(86) @ 2700: uvm_test_top.e.cov_gp [COVERAGE] Got transaction for coverage
UVM_INFO apb_scoreboard.svh(30) @ 2700: uvm_test_top.e.sco [SCO] [SCO WRITE] Addr:19 data:f75e3b96 golden_data:f75e3b96
UVM_INFO apb_driver.svh(56) @ 2715: uvm_test_top.e.a.drv [DRV] mode:write addr:42 wdata:5b9e6f2b rdata:x pslverr:x
UVM_INFO apb_monitor.svh(37) @ 2720: uvm_test_top.e.a.mon [MON] [WRITE] Data:5b9e6f2b, Addr:42, slverr:0
UVM_INFO apb_coverage.svh(86) @ 2720: uvm_test_top.e.cov_gp [COVERAGE] Got transaction for coverage
UVM_INFO apb_scoreboard.svh(30) @ 2720: uvm_test_top.e.sco [SCO] [SCO WRITE] Addr:42 data:5b9e6f2b golden_data:5b9e6f2b
UVM_INFO apb_driver.svh(56) @ 2735: uvm_test_top.e.a.drv [DRV] mode:write addr:24 wdata:736a8039 rdata:x pslverr:x
UVM_INFO apb_monitor.svh(37) @ 2740: uvm_test_top.e.a.mon [MON] [WRITE] Data:736a8039, Addr:24, slverr:0
UVM_INFO apb_coverage.svh(86) @ 2740: uvm_test_top.e.cov_gp [COVERAGE] Got transaction for coverage
UVM_INFO apb_scoreboard.svh(30) @ 2740: uvm_test_top.e.sco [SCO] [SCO WRITE] Addr:24 data:736a8039 golden_data:736a8039
UVM_INFO apb_driver.svh(56) @ 2755: uvm_test_top.e.a.drv [DRV] mode:write addr:43 wdata:ab538e93 rdata:x pslverr:x
UVM_INFO apb_monitor.svh(37) @ 2760: uvm_test_top.e.a.mon [MON] [WRITE] Data:ab538e93, Addr:43, slverr:0
UVM_INFO apb_coverage.svh(86) @ 2760: uvm_test_top.e.cov_gp [COVERAGE] Got transaction for coverage
UVM_INFO apb_scoreboard.svh(30) @ 2760: uvm_test_top.e.sco [SCO] [SCO WRITE] Addr:43 data:ab538e93 golden_data:ab538e93
UVM_INFO apb_driver.svh(56) @ 2775: uvm_test_top.e.a.drv [DRV] mode:write addr:25 wdata:767f6563 rdata:x pslverr:x
UVM_INFO apb_monitor.svh(37) @ 2780: uvm_test_top.e.a.mon [MON] [WRITE] Data:767f6563, Addr:25, slverr:0
UVM_INFO apb_coverage.svh(86) @ 2780: uvm_test_top.e.cov_gp [COVERAGE] Got transaction for coverage
UVM_INFO apb_scoreboard.svh(30) @ 2780: uvm_test_top.e.sco [SCO] [SCO WRITE] Addr:25 data:767f6563 golden_data:767f6563
UVM_INFO apb_driver.svh(56) @ 2795: uvm_test_top.e.a.drv [DRV] mode:write addr:44 wdata:1cbbda59 rdata:x pslverr:x
UVM_INFO apb_monitor.svh(37) @ 2800: uvm_test_top.e.a.mon [MON] [WRITE] Data:1cbbda59, Addr:44, slverr:0
UVM_INFO apb_coverage.svh(86) @ 2800: uvm_test_top.e.cov_gp [COVERAGE] Got transaction for coverage
UVM_INFO apb_scoreboard.svh(30) @ 2800: uvm_test_top.e.sco [SCO] [SCO WRITE] Addr:44 data:1cbbda59 golden_data:1cbbda59
UVM_INFO apb_driver.svh(56) @ 2815: uvm_test_top.e.a.drv [DRV] mode:write addr:3c wdata:c2d7767d rdata:x pslverr:x
UVM_INFO apb_monitor.svh(37) @ 2820: uvm_test_top.e.a.mon [MON] [WRITE] Data:c2d7767d, Addr:3c, slverr:0
UVM_INFO apb_coverage.svh(86) @ 2820: uvm_test_top.e.cov_gp [COVERAGE] Got transaction for coverage
UVM_INFO apb_scoreboard.svh(30) @ 2820: uvm_test_top.e.sco [SCO] [SCO WRITE] Addr:3c data:c2d7767d golden_data:c2d7767d
UVM_INFO apb_driver.svh(56) @ 2835: uvm_test_top.e.a.drv [DRV] mode:write addr:45 wdata:37cfb3f2 rdata:x pslverr:x
UVM_INFO apb_monitor.svh(37) @ 2840: uvm_test_top.e.a.mon [MON] [WRITE] Data:37cfb3f2, Addr:45, slverr:0
UVM_INFO apb_coverage.svh(86) @ 2840: uvm_test_top.e.cov_gp [COVERAGE] Got transaction for coverage
UVM_INFO apb_scoreboard.svh(30) @ 2840: uvm_test_top.e.sco [SCO] [SCO WRITE] Addr:45 data:37cfb3f2 golden_data:37cfb3f2
UVM_INFO apb_driver.svh(56) @ 2855: uvm_test_top.e.a.drv [DRV] mode:write addr:c6fbfff2 wdata:b2c70de4 rdata:x pslverr:x
UVM_INFO apb_monitor.svh(37) @ 2860: uvm_test_top.e.a.mon [MON] [WRITE] Data:b2c70de4, Addr:c6fbfff2, slverr:1
UVM_INFO apb_coverage.svh(86) @ 2860: uvm_test_top.e.cov_gp [COVERAGE] Got transaction for coverage
UVM_INFO apb_scoreboard.svh(25) @ 2860: uvm_test_top.e.sco [SCO] Slave error detectod-inavlid write transaction
UVM_INFO apb_driver.svh(56) @ 2875: uvm_test_top.e.a.drv [DRV] mode:write addr:46 wdata:20fc6643 rdata:x pslverr:x
UVM_INFO apb_monitor.svh(37) @ 2880: uvm_test_top.e.a.mon [MON] [WRITE] Data:20fc6643, Addr:46, slverr:0
UVM_INFO apb_coverage.svh(86) @ 2880: uvm_test_top.e.cov_gp [COVERAGE] Got transaction for coverage
UVM_INFO apb_scoreboard.svh(30) @ 2880: uvm_test_top.e.sco [SCO] [SCO WRITE] Addr:46 data:20fc6643 golden_data:20fc6643
UVM_INFO apb_driver.svh(56) @ 2895: uvm_test_top.e.a.drv [DRV] mode:write addr:15 wdata:edf80662 rdata:x pslverr:x
UVM_INFO apb_monitor.svh(37) @ 2900: uvm_test_top.e.a.mon [MON] [WRITE] Data:edf80662, Addr:15, slverr:0
UVM_INFO apb_coverage.svh(86) @ 2900: uvm_test_top.e.cov_gp [COVERAGE] Got transaction for coverage
UVM_INFO apb_scoreboard.svh(30) @ 2900: uvm_test_top.e.sco [SCO] [SCO WRITE] Addr:15 data:edf80662 golden_data:edf80662
UVM_INFO apb_driver.svh(56) @ 2915: uvm_test_top.e.a.drv [DRV] mode:write addr:47 wdata:4dbdb28e rdata:x pslverr:x
UVM_INFO apb_monitor.svh(37) @ 2920: uvm_test_top.e.a.mon [MON] [WRITE] Data:4dbdb28e, Addr:47, slverr:0
UVM_INFO apb_coverage.svh(86) @ 2920: uvm_test_top.e.cov_gp [COVERAGE] Got transaction for coverage
UVM_INFO apb_scoreboard.svh(30) @ 2920: uvm_test_top.e.sco [SCO] [SCO WRITE] Addr:47 data:4dbdb28e golden_data:4dbdb28e
UVM_INFO apb_driver.svh(56) @ 2935: uvm_test_top.e.a.drv [DRV] mode:write addr:5d wdata:eaf23cd1 rdata:x pslverr:x
UVM_INFO apb_monitor.svh(37) @ 2940: uvm_test_top.e.a.mon [MON] [WRITE] Data:eaf23cd1, Addr:5d, slverr:0
UVM_INFO apb_coverage.svh(86) @ 2940: uvm_test_top.e.cov_gp [COVERAGE] Got transaction for coverage
UVM_INFO apb_scoreboard.svh(30) @ 2940: uvm_test_top.e.sco [SCO] [SCO WRITE] Addr:5d data:eaf23cd1 golden_data:eaf23cd1
UVM_INFO apb_driver.svh(56) @ 2955: uvm_test_top.e.a.drv [DRV] mode:write addr:48 wdata:c8fc3a1c rdata:x pslverr:x
UVM_INFO apb_monitor.svh(37) @ 2960: uvm_test_top.e.a.mon [MON] [WRITE] Data:c8fc3a1c, Addr:48, slverr:0
UVM_INFO apb_coverage.svh(86) @ 2960: uvm_test_top.e.cov_gp [COVERAGE] Got transaction for coverage
UVM_INFO apb_scoreboard.svh(30) @ 2960: uvm_test_top.e.sco [SCO] [SCO WRITE] Addr:48 data:c8fc3a1c golden_data:c8fc3a1c
UVM_INFO apb_driver.svh(56) @ 2975: uvm_test_top.e.a.drv [DRV] mode:write addr:53 wdata:6056813a rdata:x pslverr:x
UVM_INFO apb_monitor.svh(37) @ 2980: uvm_test_top.e.a.mon [MON] [WRITE] Data:6056813a, Addr:53, slverr:0
UVM_INFO apb_coverage.svh(86) @ 2980: uvm_test_top.e.cov_gp [COVERAGE] Got transaction for coverage
UVM_INFO apb_scoreboard.svh(30) @ 2980: uvm_test_top.e.sco [SCO] [SCO WRITE] Addr:53 data:6056813a golden_data:6056813a
UVM_INFO apb_driver.svh(56) @ 2995: uvm_test_top.e.a.drv [DRV] mode:write addr:49 wdata:632870ae rdata:x pslverr:x
UVM_INFO apb_monitor.svh(37) @ 3000: uvm_test_top.e.a.mon [MON] [WRITE] Data:632870ae, Addr:49, slverr:0
UVM_INFO apb_coverage.svh(86) @ 3000: uvm_test_top.e.cov_gp [COVERAGE] Got transaction for coverage
UVM_INFO apb_scoreboard.svh(30) @ 3000: uvm_test_top.e.sco [SCO] [SCO WRITE] Addr:49 data:632870ae golden_data:632870ae
UVM_INFO apb_driver.svh(56) @ 3015: uvm_test_top.e.a.drv [DRV] mode:write addr:8 wdata:f22d37f2 rdata:x pslverr:x
UVM_INFO apb_monitor.svh(37) @ 3020: uvm_test_top.e.a.mon [MON] [WRITE] Data:f22d37f2, Addr:8, slverr:0
UVM_INFO apb_coverage.svh(86) @ 3020: uvm_test_top.e.cov_gp [COVERAGE] Got transaction for coverage
UVM_INFO apb_scoreboard.svh(30) @ 3020: uvm_test_top.e.sco [SCO] [SCO WRITE] Addr:8 data:f22d37f2 golden_data:f22d37f2
UVM_INFO apb_driver.svh(56) @ 3035: uvm_test_top.e.a.drv [DRV] mode:write addr:4a wdata:ea1483a3 rdata:x pslverr:x
UVM_INFO apb_monitor.svh(37) @ 3040: uvm_test_top.e.a.mon [MON] [WRITE] Data:ea1483a3, Addr:4a, slverr:0
UVM_INFO apb_coverage.svh(86) @ 3040: uvm_test_top.e.cov_gp [COVERAGE] Got transaction for coverage
UVM_INFO apb_scoreboard.svh(30) @ 3040: uvm_test_top.e.sco [SCO] [SCO WRITE] Addr:4a data:ea1483a3 golden_data:ea1483a3
UVM_INFO apb_driver.svh(56) @ 3055: uvm_test_top.e.a.drv [DRV] mode:write addr:19 wdata:f521f32e rdata:x pslverr:x
UVM_INFO apb_monitor.svh(37) @ 3060: uvm_test_top.e.a.mon [MON] [WRITE] Data:f521f32e, Addr:19, slverr:0
UVM_INFO apb_coverage.svh(86) @ 3060: uvm_test_top.e.cov_gp [COVERAGE] Got transaction for coverage
UVM_INFO apb_scoreboard.svh(30) @ 3060: uvm_test_top.e.sco [SCO] [SCO WRITE] Addr:19 data:f521f32e golden_data:f521f32e
UVM_INFO apb_driver.svh(56) @ 3075: uvm_test_top.e.a.drv [DRV] mode:write addr:4b wdata:449361e7 rdata:x pslverr:x
UVM_INFO apb_monitor.svh(37) @ 3080: uvm_test_top.e.a.mon [MON] [WRITE] Data:449361e7, Addr:4b, slverr:0
UVM_INFO apb_coverage.svh(86) @ 3080: uvm_test_top.e.cov_gp [COVERAGE] Got transaction for coverage
UVM_INFO apb_scoreboard.svh(30) @ 3080: uvm_test_top.e.sco [SCO] [SCO WRITE] Addr:4b data:449361e7 golden_data:449361e7
UVM_INFO apb_driver.svh(56) @ 3095: uvm_test_top.e.a.drv [DRV] mode:write addr:2b wdata:ba2267c3 rdata:x pslverr:x
UVM_INFO apb_monitor.svh(37) @ 3100: uvm_test_top.e.a.mon [MON] [WRITE] Data:ba2267c3, Addr:2b, slverr:0
UVM_INFO apb_coverage.svh(86) @ 3100: uvm_test_top.e.cov_gp [COVERAGE] Got transaction for coverage
UVM_INFO apb_scoreboard.svh(30) @ 3100: uvm_test_top.e.sco [SCO] [SCO WRITE] Addr:2b data:ba2267c3 golden_data:ba2267c3
UVM_INFO apb_driver.svh(56) @ 3115: uvm_test_top.e.a.drv [DRV] mode:write addr:4c wdata:dd6d0a1 rdata:x pslverr:x
UVM_INFO apb_monitor.svh(37) @ 3120: uvm_test_top.e.a.mon [MON] [WRITE] Data:dd6d0a1, Addr:4c, slverr:0
UVM_INFO apb_coverage.svh(86) @ 3120: uvm_test_top.e.cov_gp [COVERAGE] Got transaction for coverage
UVM_INFO apb_scoreboard.svh(30) @ 3120: uvm_test_top.e.sco [SCO] [SCO WRITE] Addr:4c data:dd6d0a1 golden_data:dd6d0a1
UVM_INFO apb_driver.svh(56) @ 3135: uvm_test_top.e.a.drv [DRV] mode:write addr:63 wdata:1775c964 rdata:x pslverr:x
UVM_INFO apb_monitor.svh(37) @ 3140: uvm_test_top.e.a.mon [MON] [WRITE] Data:1775c964, Addr:63, slverr:0
UVM_INFO apb_coverage.svh(86) @ 3140: uvm_test_top.e.cov_gp [COVERAGE] Got transaction for coverage
UVM_INFO apb_scoreboard.svh(30) @ 3140: uvm_test_top.e.sco [SCO] [SCO WRITE] Addr:63 data:1775c964 golden_data:1775c964
UVM_INFO apb_driver.svh(56) @ 3155: uvm_test_top.e.a.drv [DRV] mode:write addr:4d wdata:c83389a rdata:x pslverr:x
UVM_INFO apb_monitor.svh(37) @ 3160: uvm_test_top.e.a.mon [MON] [WRITE] Data:c83389a, Addr:4d, slverr:0
UVM_INFO apb_coverage.svh(86) @ 3160: uvm_test_top.e.cov_gp [COVERAGE] Got transaction for coverage
UVM_INFO apb_scoreboard.svh(30) @ 3160: uvm_test_top.e.sco [SCO] [SCO WRITE] Addr:4d data:c83389a golden_data:c83389a
UVM_INFO apb_driver.svh(56) @ 3175: uvm_test_top.e.a.drv [DRV] mode:write addr:6f wdata:7a737431 rdata:x pslverr:x
UVM_INFO apb_monitor.svh(37) @ 3180: uvm_test_top.e.a.mon [MON] [WRITE] Data:7a737431, Addr:6f, slverr:0
UVM_INFO apb_coverage.svh(86) @ 3180: uvm_test_top.e.cov_gp [COVERAGE] Got transaction for coverage
UVM_INFO apb_scoreboard.svh(30) @ 3180: uvm_test_top.e.sco [SCO] [SCO WRITE] Addr:6f data:7a737431 golden_data:7a737431
UVM_INFO apb_driver.svh(56) @ 3195: uvm_test_top.e.a.drv [DRV] mode:write addr:4e wdata:a194986d rdata:x pslverr:x
UVM_INFO apb_monitor.svh(37) @ 3200: uvm_test_top.e.a.mon [MON] [WRITE] Data:a194986d, Addr:4e, slverr:0
UVM_INFO apb_coverage.svh(86) @ 3200: uvm_test_top.e.cov_gp [COVERAGE] Got transaction for coverage
UVM_INFO apb_scoreboard.svh(30) @ 3200: uvm_test_top.e.sco [SCO] [SCO WRITE] Addr:4e data:a194986d golden_data:a194986d
UVM_INFO apb_driver.svh(56) @ 3215: uvm_test_top.e.a.drv [DRV] mode:write addr:76 wdata:f8dccdb4 rdata:x pslverr:x
UVM_INFO apb_monitor.svh(37) @ 3220: uvm_test_top.e.a.mon [MON] [WRITE] Data:f8dccdb4, Addr:76, slverr:0
UVM_INFO apb_coverage.svh(86) @ 3220: uvm_test_top.e.cov_gp [COVERAGE] Got transaction for coverage
UVM_INFO apb_scoreboard.svh(30) @ 3220: uvm_test_top.e.sco [SCO] [SCO WRITE] Addr:76 data:f8dccdb4 golden_data:f8dccdb4
UVM_INFO apb_driver.svh(56) @ 3235: uvm_test_top.e.a.drv [DRV] mode:write addr:4f wdata:af4c772 rdata:x pslverr:x
UVM_INFO apb_monitor.svh(37) @ 3240: uvm_test_top.e.a.mon [MON] [WRITE] Data:af4c772, Addr:4f, slverr:0
UVM_INFO apb_coverage.svh(86) @ 3240: uvm_test_top.e.cov_gp [COVERAGE] Got transaction for coverage
UVM_INFO apb_scoreboard.svh(30) @ 3240: uvm_test_top.e.sco [SCO] [SCO WRITE] Addr:4f data:af4c772 golden_data:af4c772
UVM_INFO apb_driver.svh(56) @ 3255: uvm_test_top.e.a.drv [DRV] mode:write addr:3be6e3f2 wdata:aa132966 rdata:x pslverr:x
UVM_INFO apb_monitor.svh(37) @ 3260: uvm_test_top.e.a.mon [MON] [WRITE] Data:aa132966, Addr:3be6e3f2, slverr:1
UVM_INFO apb_coverage.svh(86) @ 3260: uvm_test_top.e.cov_gp [COVERAGE] Got transaction for coverage
UVM_INFO apb_scoreboard.svh(25) @ 3260: uvm_test_top.e.sco [SCO] Slave error detectod-inavlid write transaction
UVM_INFO apb_driver.svh(56) @ 3275: uvm_test_top.e.a.drv [DRV] mode:write addr:50 wdata:15d9f56a rdata:x pslverr:x
UVM_INFO apb_monitor.svh(37) @ 3280: uvm_test_top.e.a.mon [MON] [WRITE] Data:15d9f56a, Addr:50, slverr:0
UVM_INFO apb_coverage.svh(86) @ 3280: uvm_test_top.e.cov_gp [COVERAGE] Got transaction for coverage
UVM_INFO apb_scoreboard.svh(30) @ 3280: uvm_test_top.e.sco [SCO] [SCO WRITE] Addr:50 data:15d9f56a golden_data:15d9f56a
UVM_INFO apb_driver.svh(56) @ 3295: uvm_test_top.e.a.drv [DRV] mode:write addr:41 wdata:81dbadae rdata:x pslverr:x
UVM_INFO apb_monitor.svh(37) @ 3300: uvm_test_top.e.a.mon [MON] [WRITE] Data:81dbadae, Addr:41, slverr:0
UVM_INFO apb_coverage.svh(86) @ 3300: uvm_test_top.e.cov_gp [COVERAGE] Got transaction for coverage
UVM_INFO apb_scoreboard.svh(30) @ 3300: uvm_test_top.e.sco [SCO] [SCO WRITE] Addr:41 data:81dbadae golden_data:81dbadae
UVM_INFO apb_driver.svh(56) @ 3315: uvm_test_top.e.a.drv [DRV] mode:write addr:51 wdata:9ce112e9 rdata:x pslverr:x
UVM_INFO apb_monitor.svh(37) @ 3320: uvm_test_top.e.a.mon [MON] [WRITE] Data:9ce112e9, Addr:51, slverr:0
UVM_INFO apb_coverage.svh(86) @ 3320: uvm_test_top.e.cov_gp [COVERAGE] Got transaction for coverage
UVM_INFO apb_scoreboard.svh(30) @ 3320: uvm_test_top.e.sco [SCO] [SCO WRITE] Addr:51 data:9ce112e9 golden_data:9ce112e9
UVM_INFO apb_driver.svh(56) @ 3335: uvm_test_top.e.a.drv [DRV] mode:write addr:22 wdata:3f9bfd29 rdata:x pslverr:x
UVM_INFO apb_monitor.svh(37) @ 3340: uvm_test_top.e.a.mon [MON] [WRITE] Data:3f9bfd29, Addr:22, slverr:0
UVM_INFO apb_coverage.svh(86) @ 3340: uvm_test_top.e.cov_gp [COVERAGE] Got transaction for coverage
UVM_INFO apb_scoreboard.svh(30) @ 3340: uvm_test_top.e.sco [SCO] [SCO WRITE] Addr:22 data:3f9bfd29 golden_data:3f9bfd29
UVM_INFO apb_driver.svh(56) @ 3355: uvm_test_top.e.a.drv [DRV] mode:write addr:52 wdata:edec8e85 rdata:x pslverr:x
UVM_INFO apb_monitor.svh(37) @ 3360: uvm_test_top.e.a.mon [MON] [WRITE] Data:edec8e85, Addr:52, slverr:0
UVM_INFO apb_coverage.svh(86) @ 3360: uvm_test_top.e.cov_gp [COVERAGE] Got transaction for coverage
UVM_INFO apb_scoreboard.svh(30) @ 3360: uvm_test_top.e.sco [SCO] [SCO WRITE] Addr:52 data:edec8e85 golden_data:edec8e85
UVM_INFO apb_driver.svh(56) @ 3375: uvm_test_top.e.a.drv [DRV] mode:write addr:327253bf wdata:48d3f15b rdata:x pslverr:x
UVM_INFO apb_monitor.svh(37) @ 3380: uvm_test_top.e.a.mon [MON] [WRITE] Data:48d3f15b, Addr:327253bf, slverr:1
UVM_INFO apb_coverage.svh(86) @ 3380: uvm_test_top.e.cov_gp [COVERAGE] Got transaction for coverage
UVM_INFO apb_scoreboard.svh(25) @ 3380: uvm_test_top.e.sco [SCO] Slave error detectod-inavlid write transaction
UVM_INFO apb_driver.svh(56) @ 3395: uvm_test_top.e.a.drv [DRV] mode:write addr:53 wdata:f3be92c1 rdata:x pslverr:x
UVM_INFO apb_monitor.svh(37) @ 3400: uvm_test_top.e.a.mon [MON] [WRITE] Data:f3be92c1, Addr:53, slverr:0
UVM_INFO apb_coverage.svh(86) @ 3400: uvm_test_top.e.cov_gp [COVERAGE] Got transaction for coverage
UVM_INFO apb_scoreboard.svh(30) @ 3400: uvm_test_top.e.sco [SCO] [SCO WRITE] Addr:53 data:f3be92c1 golden_data:f3be92c1
UVM_INFO apb_driver.svh(56) @ 3415: uvm_test_top.e.a.drv [DRV] mode:write addr:37 wdata:1c65fbff rdata:x pslverr:x
UVM_INFO apb_monitor.svh(37) @ 3420: uvm_test_top.e.a.mon [MON] [WRITE] Data:1c65fbff, Addr:37, slverr:0
UVM_INFO apb_coverage.svh(86) @ 3420: uvm_test_top.e.cov_gp [COVERAGE] Got transaction for coverage
UVM_INFO apb_scoreboard.svh(30) @ 3420: uvm_test_top.e.sco [SCO] [SCO WRITE] Addr:37 data:1c65fbff golden_data:1c65fbff
UVM_INFO apb_driver.svh(56) @ 3435: uvm_test_top.e.a.drv [DRV] mode:write addr:54 wdata:bf53b0b9 rdata:x pslverr:x
UVM_INFO apb_monitor.svh(37) @ 3440: uvm_test_top.e.a.mon [MON] [WRITE] Data:bf53b0b9, Addr:54, slverr:0
UVM_INFO apb_coverage.svh(86) @ 3440: uvm_test_top.e.cov_gp [COVERAGE] Got transaction for coverage
UVM_INFO apb_scoreboard.svh(30) @ 3440: uvm_test_top.e.sco [SCO] [SCO WRITE] Addr:54 data:bf53b0b9 golden_data:bf53b0b9
UVM_INFO apb_driver.svh(56) @ 3455: uvm_test_top.e.a.drv [DRV] mode:write addr:f2d27e9f wdata:e07bca79 rdata:x pslverr:x
UVM_INFO apb_monitor.svh(37) @ 3460: uvm_test_top.e.a.mon [MON] [WRITE] Data:e07bca79, Addr:f2d27e9f, slverr:1
UVM_INFO apb_coverage.svh(86) @ 3460: uvm_test_top.e.cov_gp [COVERAGE] Got transaction for coverage
UVM_INFO apb_scoreboard.svh(25) @ 3460: uvm_test_top.e.sco [SCO] Slave error detectod-inavlid write transaction
UVM_INFO apb_driver.svh(56) @ 3475: uvm_test_top.e.a.drv [DRV] mode:write addr:55 wdata:ccffa38d rdata:x pslverr:x
UVM_INFO apb_monitor.svh(37) @ 3480: uvm_test_top.e.a.mon [MON] [WRITE] Data:ccffa38d, Addr:55, slverr:0
UVM_INFO apb_coverage.svh(86) @ 3480: uvm_test_top.e.cov_gp [COVERAGE] Got transaction for coverage
UVM_INFO apb_scoreboard.svh(30) @ 3480: uvm_test_top.e.sco [SCO] [SCO WRITE] Addr:55 data:ccffa38d golden_data:ccffa38d
UVM_INFO apb_driver.svh(56) @ 3495: uvm_test_top.e.a.drv [DRV] mode:write addr:6 wdata:d2eeaacd rdata:x pslverr:x
UVM_INFO apb_monitor.svh(37) @ 3500: uvm_test_top.e.a.mon [MON] [WRITE] Data:d2eeaacd, Addr:6, slverr:0
UVM_INFO apb_coverage.svh(86) @ 3500: uvm_test_top.e.cov_gp [COVERAGE] Got transaction for coverage
UVM_INFO apb_scoreboard.svh(30) @ 3500: uvm_test_top.e.sco [SCO] [SCO WRITE] Addr:6 data:d2eeaacd golden_data:d2eeaacd
UVM_INFO apb_driver.svh(56) @ 3515: uvm_test_top.e.a.drv [DRV] mode:write addr:56 wdata:214c988d rdata:x pslverr:x
UVM_INFO apb_monitor.svh(37) @ 3520: uvm_test_top.e.a.mon [MON] [WRITE] Data:214c988d, Addr:56, slverr:0
UVM_INFO apb_coverage.svh(86) @ 3520: uvm_test_top.e.cov_gp [COVERAGE] Got transaction for coverage
UVM_INFO apb_scoreboard.svh(30) @ 3520: uvm_test_top.e.sco [SCO] [SCO WRITE] Addr:56 data:214c988d golden_data:214c988d
UVM_INFO apb_driver.svh(56) @ 3535: uvm_test_top.e.a.drv [DRV] mode:write addr:4c wdata:655b2e23 rdata:x pslverr:x
UVM_INFO apb_monitor.svh(37) @ 3540: uvm_test_top.e.a.mon [MON] [WRITE] Data:655b2e23, Addr:4c, slverr:0
UVM_INFO apb_coverage.svh(86) @ 3540: uvm_test_top.e.cov_gp [COVERAGE] Got transaction for coverage
UVM_INFO apb_scoreboard.svh(30) @ 3540: uvm_test_top.e.sco [SCO] [SCO WRITE] Addr:4c data:655b2e23 golden_data:655b2e23
UVM_INFO apb_driver.svh(56) @ 3555: uvm_test_top.e.a.drv [DRV] mode:write addr:57 wdata:19912828 rdata:x pslverr:x
UVM_INFO apb_monitor.svh(37) @ 3560: uvm_test_top.e.a.mon [MON] [WRITE] Data:19912828, Addr:57, slverr:0
UVM_INFO apb_coverage.svh(86) @ 3560: uvm_test_top.e.cov_gp [COVERAGE] Got transaction for coverage
UVM_INFO apb_scoreboard.svh(30) @ 3560: uvm_test_top.e.sco [SCO] [SCO WRITE] Addr:57 data:19912828 golden_data:19912828
UVM_INFO apb_driver.svh(56) @ 3575: uvm_test_top.e.a.drv [DRV] mode:write addr:30 wdata:ee8e42d2 rdata:x pslverr:x
UVM_INFO apb_monitor.svh(37) @ 3580: uvm_test_top.e.a.mon [MON] [WRITE] Data:ee8e42d2, Addr:30, slverr:0
UVM_INFO apb_coverage.svh(86) @ 3580: uvm_test_top.e.cov_gp [COVERAGE] Got transaction for coverage
UVM_INFO apb_scoreboard.svh(30) @ 3580: uvm_test_top.e.sco [SCO] [SCO WRITE] Addr:30 data:ee8e42d2 golden_data:ee8e42d2
UVM_INFO apb_driver.svh(56) @ 3595: uvm_test_top.e.a.drv [DRV] mode:write addr:58 wdata:8c53eb93 rdata:x pslverr:x
UVM_INFO apb_monitor.svh(37) @ 3600: uvm_test_top.e.a.mon [MON] [WRITE] Data:8c53eb93, Addr:58, slverr:0
UVM_INFO apb_coverage.svh(86) @ 3600: uvm_test_top.e.cov_gp [COVERAGE] Got transaction for coverage
UVM_INFO apb_scoreboard.svh(30) @ 3600: uvm_test_top.e.sco [SCO] [SCO WRITE] Addr:58 data:8c53eb93 golden_data:8c53eb93
UVM_INFO apb_driver.svh(56) @ 3615: uvm_test_top.e.a.drv [DRV] mode:write addr:e wdata:a7c96806 rdata:x pslverr:x
UVM_INFO apb_monitor.svh(37) @ 3620: uvm_test_top.e.a.mon [MON] [WRITE] Data:a7c96806, Addr:e, slverr:0
UVM_INFO apb_coverage.svh(86) @ 3620: uvm_test_top.e.cov_gp [COVERAGE] Got transaction for coverage
UVM_INFO apb_scoreboard.svh(30) @ 3620: uvm_test_top.e.sco [SCO] [SCO WRITE] Addr:e data:a7c96806 golden_data:a7c96806
UVM_INFO apb_driver.svh(56) @ 3635: uvm_test_top.e.a.drv [DRV] mode:write addr:59 wdata:955d5b3a rdata:x pslverr:x
UVM_INFO apb_monitor.svh(37) @ 3640: uvm_test_top.e.a.mon [MON] [WRITE] Data:955d5b3a, Addr:59, slverr:0
UVM_INFO apb_coverage.svh(86) @ 3640: uvm_test_top.e.cov_gp [COVERAGE] Got transaction for coverage
UVM_INFO apb_scoreboard.svh(30) @ 3640: uvm_test_top.e.sco [SCO] [SCO WRITE] Addr:59 data:955d5b3a golden_data:955d5b3a
UVM_INFO apb_driver.svh(56) @ 3655: uvm_test_top.e.a.drv [DRV] mode:write addr:63 wdata:c6286df4 rdata:x pslverr:x
UVM_INFO apb_monitor.svh(37) @ 3660: uvm_test_top.e.a.mon [MON] [WRITE] Data:c6286df4, Addr:63, slverr:0
UVM_INFO apb_coverage.svh(86) @ 3660: uvm_test_top.e.cov_gp [COVERAGE] Got transaction for coverage
UVM_INFO apb_scoreboard.svh(30) @ 3660: uvm_test_top.e.sco [SCO] [SCO WRITE] Addr:63 data:c6286df4 golden_data:c6286df4
UVM_INFO apb_driver.svh(56) @ 3675: uvm_test_top.e.a.drv [DRV] mode:write addr:5a wdata:29a061e9 rdata:x pslverr:x
UVM_INFO apb_monitor.svh(37) @ 3680: uvm_test_top.e.a.mon [MON] [WRITE] Data:29a061e9, Addr:5a, slverr:0
UVM_INFO apb_coverage.svh(86) @ 3680: uvm_test_top.e.cov_gp [COVERAGE] Got transaction for coverage
UVM_INFO apb_scoreboard.svh(30) @ 3680: uvm_test_top.e.sco [SCO] [SCO WRITE] Addr:5a data:29a061e9 golden_data:29a061e9
UVM_INFO apb_driver.svh(56) @ 3695: uvm_test_top.e.a.drv [DRV] mode:write addr:6a wdata:ab74cbe1 rdata:x pslverr:x
UVM_INFO apb_monitor.svh(37) @ 3700: uvm_test_top.e.a.mon [MON] [WRITE] Data:ab74cbe1, Addr:6a, slverr:0
UVM_INFO apb_coverage.svh(86) @ 3700: uvm_test_top.e.cov_gp [COVERAGE] Got transaction for coverage
UVM_INFO apb_scoreboard.svh(30) @ 3700: uvm_test_top.e.sco [SCO] [SCO WRITE] Addr:6a data:ab74cbe1 golden_data:ab74cbe1
UVM_INFO apb_driver.svh(56) @ 3715: uvm_test_top.e.a.drv [DRV] mode:write addr:5b wdata:4ecbd0b9 rdata:x pslverr:x
UVM_INFO apb_monitor.svh(37) @ 3720: uvm_test_top.e.a.mon [MON] [WRITE] Data:4ecbd0b9, Addr:5b, slverr:0
UVM_INFO apb_coverage.svh(86) @ 3720: uvm_test_top.e.cov_gp [COVERAGE] Got transaction for coverage
UVM_INFO apb_scoreboard.svh(30) @ 3720: uvm_test_top.e.sco [SCO] [SCO WRITE] Addr:5b data:4ecbd0b9 golden_data:4ecbd0b9
UVM_INFO apb_driver.svh(56) @ 3735: uvm_test_top.e.a.drv [DRV] mode:write addr:10 wdata:2ed103d4 rdata:x pslverr:x
UVM_INFO apb_monitor.svh(37) @ 3740: uvm_test_top.e.a.mon [MON] [WRITE] Data:2ed103d4, Addr:10, slverr:0
UVM_INFO apb_coverage.svh(86) @ 3740: uvm_test_top.e.cov_gp [COVERAGE] Got transaction for coverage
UVM_INFO apb_scoreboard.svh(30) @ 3740: uvm_test_top.e.sco [SCO] [SCO WRITE] Addr:10 data:2ed103d4 golden_data:2ed103d4
UVM_INFO apb_driver.svh(56) @ 3755: uvm_test_top.e.a.drv [DRV] mode:write addr:5c wdata:92a89fba rdata:x pslverr:x
UVM_INFO apb_monitor.svh(37) @ 3760: uvm_test_top.e.a.mon [MON] [WRITE] Data:92a89fba, Addr:5c, slverr:0
UVM_INFO apb_coverage.svh(86) @ 3760: uvm_test_top.e.cov_gp [COVERAGE] Got transaction for coverage
UVM_INFO apb_scoreboard.svh(30) @ 3760: uvm_test_top.e.sco [SCO] [SCO WRITE] Addr:5c data:92a89fba golden_data:92a89fba
UVM_INFO apb_driver.svh(56) @ 3775: uvm_test_top.e.a.drv [DRV] mode:write addr:1c wdata:2b22661c rdata:x pslverr:x
UVM_INFO apb_monitor.svh(37) @ 3780: uvm_test_top.e.a.mon [MON] [WRITE] Data:2b22661c, Addr:1c, slverr:0
UVM_INFO apb_coverage.svh(86) @ 3780: uvm_test_top.e.cov_gp [COVERAGE] Got transaction for coverage
UVM_INFO apb_scoreboard.svh(30) @ 3780: uvm_test_top.e.sco [SCO] [SCO WRITE] Addr:1c data:2b22661c golden_data:2b22661c
UVM_INFO apb_driver.svh(56) @ 3795: uvm_test_top.e.a.drv [DRV] mode:write addr:5d wdata:1e3ba763 rdata:x pslverr:x
UVM_INFO apb_monitor.svh(37) @ 3800: uvm_test_top.e.a.mon [MON] [WRITE] Data:1e3ba763, Addr:5d, slverr:0
UVM_INFO apb_coverage.svh(86) @ 3800: uvm_test_top.e.cov_gp [COVERAGE] Got transaction for coverage
UVM_INFO apb_scoreboard.svh(30) @ 3800: uvm_test_top.e.sco [SCO] [SCO WRITE] Addr:5d data:1e3ba763 golden_data:1e3ba763
UVM_INFO apb_driver.svh(56) @ 3815: uvm_test_top.e.a.drv [DRV] mode:write addr:43 wdata:bd93ae85 rdata:x pslverr:x
UVM_INFO apb_monitor.svh(37) @ 3820: uvm_test_top.e.a.mon [MON] [WRITE] Data:bd93ae85, Addr:43, slverr:0
UVM_INFO apb_coverage.svh(86) @ 3820: uvm_test_top.e.cov_gp [COVERAGE] Got transaction for coverage
UVM_INFO apb_scoreboard.svh(30) @ 3820: uvm_test_top.e.sco [SCO] [SCO WRITE] Addr:43 data:bd93ae85 golden_data:bd93ae85
UVM_INFO apb_driver.svh(56) @ 3835: uvm_test_top.e.a.drv [DRV] mode:write addr:5e wdata:809a3ebc rdata:x pslverr:x
UVM_INFO apb_monitor.svh(37) @ 3840: uvm_test_top.e.a.mon [MON] [WRITE] Data:809a3ebc, Addr:5e, slverr:0
UVM_INFO apb_coverage.svh(86) @ 3840: uvm_test_top.e.cov_gp [COVERAGE] Got transaction for coverage
UVM_INFO apb_scoreboard.svh(30) @ 3840: uvm_test_top.e.sco [SCO] [SCO WRITE] Addr:5e data:809a3ebc golden_data:809a3ebc
UVM_INFO apb_driver.svh(56) @ 3855: uvm_test_top.e.a.drv [DRV] mode:write addr:2f wdata:1565589f rdata:x pslverr:x
UVM_INFO apb_monitor.svh(37) @ 3860: uvm_test_top.e.a.mon [MON] [WRITE] Data:1565589f, Addr:2f, slverr:0
UVM_INFO apb_coverage.svh(86) @ 3860: uvm_test_top.e.cov_gp [COVERAGE] Got transaction for coverage
UVM_INFO apb_scoreboard.svh(30) @ 3860: uvm_test_top.e.sco [SCO] [SCO WRITE] Addr:2f data:1565589f golden_data:1565589f
UVM_INFO apb_driver.svh(56) @ 3875: uvm_test_top.e.a.drv [DRV] mode:write addr:5f wdata:d8bea47 rdata:x pslverr:x
UVM_INFO apb_monitor.svh(37) @ 3880: uvm_test_top.e.a.mon [MON] [WRITE] Data:d8bea47, Addr:5f, slverr:0
UVM_INFO apb_coverage.svh(86) @ 3880: uvm_test_top.e.cov_gp [COVERAGE] Got transaction for coverage
UVM_INFO apb_scoreboard.svh(30) @ 3880: uvm_test_top.e.sco [SCO] [SCO WRITE] Addr:5f data:d8bea47 golden_data:d8bea47
UVM_INFO apb_driver.svh(56) @ 3895: uvm_test_top.e.a.drv [DRV] mode:write addr:25 wdata:f8314c9 rdata:x pslverr:x
UVM_INFO apb_monitor.svh(37) @ 3900: uvm_test_top.e.a.mon [MON] [WRITE] Data:f8314c9, Addr:25, slverr:0
UVM_INFO apb_coverage.svh(86) @ 3900: uvm_test_top.e.cov_gp [COVERAGE] Got transaction for coverage
UVM_INFO apb_scoreboard.svh(30) @ 3900: uvm_test_top.e.sco [SCO] [SCO WRITE] Addr:25 data:f8314c9 golden_data:f8314c9
UVM_INFO apb_driver.svh(56) @ 3915: uvm_test_top.e.a.drv [DRV] mode:write addr:60 wdata:6be207b1 rdata:x pslverr:x
UVM_INFO apb_monitor.svh(37) @ 3920: uvm_test_top.e.a.mon [MON] [WRITE] Data:6be207b1, Addr:60, slverr:0
UVM_INFO apb_coverage.svh(86) @ 3920: uvm_test_top.e.cov_gp [COVERAGE] Got transaction for coverage
UVM_INFO apb_scoreboard.svh(30) @ 3920: uvm_test_top.e.sco [SCO] [SCO WRITE] Addr:60 data:6be207b1 golden_data:6be207b1
UVM_INFO apb_driver.svh(56) @ 3935: uvm_test_top.e.a.drv [DRV] mode:write addr:d0d75c68 wdata:35d057bf rdata:x pslverr:x
UVM_INFO apb_monitor.svh(37) @ 3940: uvm_test_top.e.a.mon [MON] [WRITE] Data:35d057bf, Addr:d0d75c68, slverr:1
UVM_INFO apb_coverage.svh(86) @ 3940: uvm_test_top.e.cov_gp [COVERAGE] Got transaction for coverage
UVM_INFO apb_scoreboard.svh(25) @ 3940: uvm_test_top.e.sco [SCO] Slave error detectod-inavlid write transaction
UVM_INFO apb_driver.svh(56) @ 3955: uvm_test_top.e.a.drv [DRV] mode:write addr:61 wdata:af96223b rdata:x pslverr:x
UVM_INFO apb_monitor.svh(37) @ 3960: uvm_test_top.e.a.mon [MON] [WRITE] Data:af96223b, Addr:61, slverr:0
UVM_INFO apb_coverage.svh(86) @ 3960: uvm_test_top.e.cov_gp [COVERAGE] Got transaction for coverage
UVM_INFO apb_scoreboard.svh(30) @ 3960: uvm_test_top.e.sco [SCO] [SCO WRITE] Addr:61 data:af96223b golden_data:af96223b
UVM_INFO apb_driver.svh(56) @ 3975: uvm_test_top.e.a.drv [DRV] mode:write addr:5f wdata:762c41c9 rdata:x pslverr:x
UVM_INFO apb_monitor.svh(37) @ 3980: uvm_test_top.e.a.mon [MON] [WRITE] Data:762c41c9, Addr:5f, slverr:0
UVM_INFO apb_coverage.svh(86) @ 3980: uvm_test_top.e.cov_gp [COVERAGE] Got transaction for coverage
UVM_INFO apb_scoreboard.svh(30) @ 3980: uvm_test_top.e.sco [SCO] [SCO WRITE] Addr:5f data:762c41c9 golden_data:762c41c9
UVM_INFO apb_driver.svh(56) @ 3995: uvm_test_top.e.a.drv [DRV] mode:write addr:62 wdata:1ba75be8 rdata:x pslverr:x
UVM_INFO apb_monitor.svh(37) @ 4000: uvm_test_top.e.a.mon [MON] [WRITE] Data:1ba75be8, Addr:62, slverr:0
UVM_INFO apb_coverage.svh(86) @ 4000: uvm_test_top.e.cov_gp [COVERAGE] Got transaction for coverage
UVM_INFO apb_scoreboard.svh(30) @ 4000: uvm_test_top.e.sco [SCO] [SCO WRITE] Addr:62 data:1ba75be8 golden_data:1ba75be8
UVM_INFO apb_driver.svh(56) @ 4015: uvm_test_top.e.a.drv [DRV] mode:write addr:f wdata:3d2a8761 rdata:x pslverr:x
UVM_INFO apb_monitor.svh(37) @ 4020: uvm_test_top.e.a.mon [MON] [WRITE] Data:3d2a8761, Addr:f, slverr:0
UVM_INFO apb_coverage.svh(86) @ 4020: uvm_test_top.e.cov_gp [COVERAGE] Got transaction for coverage
UVM_INFO apb_scoreboard.svh(30) @ 4020: uvm_test_top.e.sco [SCO] [SCO WRITE] Addr:f data:3d2a8761 golden_data:3d2a8761
UVM_INFO apb_driver.svh(56) @ 4035: uvm_test_top.e.a.drv [DRV] mode:write addr:63 wdata:67b21765 rdata:x pslverr:x
UVM_INFO apb_monitor.svh(37) @ 4040: uvm_test_top.e.a.mon [MON] [WRITE] Data:67b21765, Addr:63, slverr:0
UVM_INFO apb_coverage.svh(86) @ 4040: uvm_test_top.e.cov_gp [COVERAGE] Got transaction for coverage
UVM_INFO apb_scoreboard.svh(30) @ 4040: uvm_test_top.e.sco [SCO] [SCO WRITE] Addr:63 data:67b21765 golden_data:67b21765
UVM_INFO apb_driver.svh(56) @ 4055: uvm_test_top.e.a.drv [DRV] mode:write addr:79 wdata:239f0c6a rdata:x pslverr:x
UVM_INFO apb_monitor.svh(37) @ 4060: uvm_test_top.e.a.mon [MON] [WRITE] Data:239f0c6a, Addr:79, slverr:0
UVM_INFO apb_coverage.svh(86) @ 4060: uvm_test_top.e.cov_gp [COVERAGE] Got transaction for coverage
UVM_INFO apb_scoreboard.svh(30) @ 4060: uvm_test_top.e.sco [SCO] [SCO WRITE] Addr:79 data:239f0c6a golden_data:239f0c6a
UVM_INFO apb_driver.svh(56) @ 4075: uvm_test_top.e.a.drv [DRV] mode:write addr:64 wdata:254ecebb rdata:x pslverr:x
UVM_INFO apb_monitor.svh(37) @ 4080: uvm_test_top.e.a.mon [MON] [WRITE] Data:254ecebb, Addr:64, slverr:0
UVM_INFO apb_coverage.svh(86) @ 4080: uvm_test_top.e.cov_gp [COVERAGE] Got transaction for coverage
UVM_INFO apb_scoreboard.svh(30) @ 4080: uvm_test_top.e.sco [SCO] [SCO WRITE] Addr:64 data:254ecebb golden_data:254ecebb
UVM_INFO apb_driver.svh(56) @ 4095: uvm_test_top.e.a.drv [DRV] mode:write addr:2d wdata:288d2dac rdata:x pslverr:x
UVM_INFO apb_monitor.svh(37) @ 4100: uvm_test_top.e.a.mon [MON] [WRITE] Data:288d2dac, Addr:2d, slverr:0
UVM_INFO apb_coverage.svh(86) @ 4100: uvm_test_top.e.cov_gp [COVERAGE] Got transaction for coverage
UVM_INFO apb_scoreboard.svh(30) @ 4100: uvm_test_top.e.sco [SCO] [SCO WRITE] Addr:2d data:288d2dac golden_data:288d2dac
UVM_INFO apb_driver.svh(56) @ 4115: uvm_test_top.e.a.drv [DRV] mode:write addr:65 wdata:a12fc2b5 rdata:x pslverr:x
UVM_INFO apb_monitor.svh(37) @ 4120: uvm_test_top.e.a.mon [MON] [WRITE] Data:a12fc2b5, Addr:65, slverr:0
UVM_INFO apb_coverage.svh(86) @ 4120: uvm_test_top.e.cov_gp [COVERAGE] Got transaction for coverage
UVM_INFO apb_scoreboard.svh(30) @ 4120: uvm_test_top.e.sco [SCO] [SCO WRITE] Addr:65 data:a12fc2b5 golden_data:a12fc2b5
UVM_INFO apb_driver.svh(56) @ 4135: uvm_test_top.e.a.drv [DRV] mode:write addr:21 wdata:635f2172 rdata:x pslverr:x
UVM_INFO apb_monitor.svh(37) @ 4140: uvm_test_top.e.a.mon [MON] [WRITE] Data:635f2172, Addr:21, slverr:0
UVM_INFO apb_coverage.svh(86) @ 4140: uvm_test_top.e.cov_gp [COVERAGE] Got transaction for coverage
UVM_INFO apb_scoreboard.svh(30) @ 4140: uvm_test_top.e.sco [SCO] [SCO WRITE] Addr:21 data:635f2172 golden_data:635f2172
UVM_INFO apb_driver.svh(56) @ 4155: uvm_test_top.e.a.drv [DRV] mode:write addr:66 wdata:5bf7ef10 rdata:x pslverr:x
UVM_INFO apb_monitor.svh(37) @ 4160: uvm_test_top.e.a.mon [MON] [WRITE] Data:5bf7ef10, Addr:66, slverr:0
UVM_INFO apb_coverage.svh(86) @ 4160: uvm_test_top.e.cov_gp [COVERAGE] Got transaction for coverage
UVM_INFO apb_scoreboard.svh(30) @ 4160: uvm_test_top.e.sco [SCO] [SCO WRITE] Addr:66 data:5bf7ef10 golden_data:5bf7ef10
UVM_INFO apb_driver.svh(56) @ 4175: uvm_test_top.e.a.drv [DRV] mode:write addr:32 wdata:8da1e8a rdata:x pslverr:x
UVM_INFO apb_monitor.svh(37) @ 4180: uvm_test_top.e.a.mon [MON] [WRITE] Data:8da1e8a, Addr:32, slverr:0
UVM_INFO apb_coverage.svh(86) @ 4180: uvm_test_top.e.cov_gp [COVERAGE] Got transaction for coverage
UVM_INFO apb_scoreboard.svh(30) @ 4180: uvm_test_top.e.sco [SCO] [SCO WRITE] Addr:32 data:8da1e8a golden_data:8da1e8a
UVM_INFO apb_driver.svh(56) @ 4195: uvm_test_top.e.a.drv [DRV] mode:write addr:67 wdata:f6dc6f67 rdata:x pslverr:x
UVM_INFO apb_monitor.svh(37) @ 4200: uvm_test_top.e.a.mon [MON] [WRITE] Data:f6dc6f67, Addr:67, slverr:0
UVM_INFO apb_coverage.svh(86) @ 4200: uvm_test_top.e.cov_gp [COVERAGE] Got transaction for coverage
UVM_INFO apb_scoreboard.svh(30) @ 4200: uvm_test_top.e.sco [SCO] [SCO WRITE] Addr:67 data:f6dc6f67 golden_data:f6dc6f67
UVM_INFO apb_driver.svh(56) @ 4215: uvm_test_top.e.a.drv [DRV] mode:write addr:941b3509 wdata:7b1b0449 rdata:x pslverr:x
UVM_INFO apb_monitor.svh(37) @ 4220: uvm_test_top.e.a.mon [MON] [WRITE] Data:7b1b0449, Addr:941b3509, slverr:1
UVM_INFO apb_coverage.svh(86) @ 4220: uvm_test_top.e.cov_gp [COVERAGE] Got transaction for coverage
UVM_INFO apb_scoreboard.svh(25) @ 4220: uvm_test_top.e.sco [SCO] Slave error detectod-inavlid write transaction
UVM_INFO apb_driver.svh(56) @ 4235: uvm_test_top.e.a.drv [DRV] mode:write addr:68 wdata:2ffd40db rdata:x pslverr:x
UVM_INFO apb_monitor.svh(37) @ 4240: uvm_test_top.e.a.mon [MON] [WRITE] Data:2ffd40db, Addr:68, slverr:0
UVM_INFO apb_coverage.svh(86) @ 4240: uvm_test_top.e.cov_gp [COVERAGE] Got transaction for coverage
UVM_INFO apb_scoreboard.svh(30) @ 4240: uvm_test_top.e.sco [SCO] [SCO WRITE] Addr:68 data:2ffd40db golden_data:2ffd40db
UVM_INFO apb_driver.svh(56) @ 4255: uvm_test_top.e.a.drv [DRV] mode:write addr:6b wdata:53fbf8fc rdata:x pslverr:x
UVM_INFO apb_monitor.svh(37) @ 4260: uvm_test_top.e.a.mon [MON] [WRITE] Data:53fbf8fc, Addr:6b, slverr:0
UVM_INFO apb_coverage.svh(86) @ 4260: uvm_test_top.e.cov_gp [COVERAGE] Got transaction for coverage
UVM_INFO apb_scoreboard.svh(30) @ 4260: uvm_test_top.e.sco [SCO] [SCO WRITE] Addr:6b data:53fbf8fc golden_data:53fbf8fc
UVM_INFO apb_driver.svh(56) @ 4275: uvm_test_top.e.a.drv [DRV] mode:write addr:69 wdata:4a830c83 rdata:x pslverr:x
UVM_INFO apb_monitor.svh(37) @ 4280: uvm_test_top.e.a.mon [MON] [WRITE] Data:4a830c83, Addr:69, slverr:0
UVM_INFO apb_coverage.svh(86) @ 4280: uvm_test_top.e.cov_gp [COVERAGE] Got transaction for coverage
